HEADER
"PSFversion" "1.00"
"simulator" "spectre"
"version" "10.1.1.164.isr11"
"date" "3:02:49 PM, Fri Oct 17, 2014"
"design" "* Spectre Timing Acquisition"
"analysis type" "tran"
"analysis name" "transient1-003_transient1"
"analysis description" "Transient Analysis `transient1-003_transient1': time = (0 s -> 39 ns)"
"xVecSorted" "ascending"
"tolerance.relative" 0.00100000
"start" 0.00000
"outputstart" 0.00000
"stop" 3.90000e-08
"step" 3.90000e-11
"maxstep" 7.80000e-10
"ic" "all"
"useprevic" "no"
"skipdc" "no"
"reltol" 0.00100000
"abstol(V)" 1.00000e-06
"abstol(I)" 1.00000e-12
"temp" 25.0000
"tnom" 27.0000
"tempeffects" "all"
"errpreset" "moderate"
"method" "traponly"
"lteratio" 3.50000
"relref" "sigglobal"
"cmin" 0.00000
"gmin" 1.00000e-12
TYPE
"sweep" FLOAT DOUBLE PROP(
"key" "sweep"
)
"Tau" FLOAT DOUBLE PROP(
"units" "N*m"
"key" "node"
"tolerance" 1.00000e-06
)
"Alpha" FLOAT DOUBLE PROP(
"units" "rads/s^2"
"key" "node"
"tolerance" 1.00000e-06
)
"Omega" FLOAT DOUBLE PROP(
"units" "rads/s"
"key" "node"
"tolerance" 1.00000e-06
)
"Theta" FLOAT DOUBLE PROP(
"units" "rads"
"key" "node"
"tolerance" 1.00000e-06
)
"F" FLOAT DOUBLE PROP(
"units" "N"
"key" "node"
"tolerance" 1.00000e-06
)
"Imp" FLOAT DOUBLE PROP(
"units" "m/s^3"
"key" "node"
"tolerance" 1.00000e-06
)
"Acc" FLOAT DOUBLE PROP(
"units" "m/s^2"
"key" "node"
"tolerance" 1.00000e-06
)
"Vel" FLOAT DOUBLE PROP(
"units" "m/s"
"key" "node"
"tolerance" 1.00000e-06
)
"Pos" FLOAT DOUBLE PROP(
"units" "m"
"key" "node"
"tolerance" 1.00000e-06
)
"Phi" FLOAT DOUBLE PROP(
"units" "Wb"
"key" "node"
"tolerance" 1.00000e-09
)
"Q" FLOAT DOUBLE PROP(
"units" "coul"
"key" "node"
"tolerance" 1.00000e-14
)
"V" FLOAT DOUBLE PROP(
"units" "V"
"key" "node"
"tolerance" 1.00000e-06
)
"I" FLOAT DOUBLE PROP(
"units" "A"
"key" "branch"
"tolerance" 1.00000e-12
)
"MMF" FLOAT DOUBLE PROP(
"units" "A*turn"
"key" "node"
"tolerance" 1.00000e-12
)
"Wb" FLOAT DOUBLE PROP(
"units" "Wb"
"key" "node"
"tolerance" 1.00000e-09
)
"Temp" FLOAT DOUBLE PROP(
"units" "C"
"key" "node"
"tolerance" 0.000100000
)
"Pwr" FLOAT DOUBLE PROP(
"units" "W"
"key" "node"
"tolerance" 1.00000e-09
)
"U" FLOAT DOUBLE PROP(
"units" ""
"key" "node"
"tolerance" 1.00000e-06
)
"V/Sec" FLOAT DOUBLE PROP(
"units" "V/s"
"key" "node"
"tolerance" 0.000100000
)
"I/Sec" FLOAT DOUBLE PROP(
"units" "A/s"
"key" "node"
"tolerance" 1.00000e-06
)
"1/Sec" FLOAT DOUBLE PROP(
"units" "1/s"
"key" "node"
"tolerance" 0.000100000
)
"HOD" FLOAT DOUBLE PROP(
"units" ""
"key" "node"
"tolerance" 0.0100000
)
"A" FLOAT DOUBLE PROP(
"key" "inst"
)
"W" FLOAT DOUBLE PROP(
"key" "inst"
)
SWEEP
"time" "sweep" PROP(
"sweep_direction" 0
"units" "s"
"plot" 0
"grid" 1
)
TRACE
"Vn_D0:v" "V" PROP(
"units" "V"
)
"Vn_D0:i" "A" PROP(
"units" "A"
)
"Vn_D0:pwr" "W" PROP(
"units" "W"
)
"Vn_D1:v" "V" PROP(
"units" "V"
)
"Vn_D1:i" "A" PROP(
"units" "A"
)
"Vn_D1:pwr" "W" PROP(
"units" "W"
)
"Vn_GND:v" "V" PROP(
"units" "V"
)
"Vn_GND:i" "A" PROP(
"units" "A"
)
"Vn_GND:pwr" "W" PROP(
"units" "W"
)
"Vn_SD:v" "V" PROP(
"units" "V"
)
"Vn_SD:i" "A" PROP(
"units" "A"
)
"Vn_SD:pwr" "W" PROP(
"units" "W"
)
"Vn_VDD:v" "V" PROP(
"units" "V"
)
"Vn_VDD:i" "A" PROP(
"units" "A"
)
"Vn_VDD:pwr" "W" PROP(
"units" "W"
)
"Vn_Z:v" "V" PROP(
"units" "V"
)
"Vn_Z:i" "A" PROP(
"units" "A"
)
"Vn_Z:pwr" "W" PROP(
"units" "W"
)
"n_Z" "V"
"n_D0" "V"
"n_D1" "V"
"n_SD" "V"
"Vn_D0:n" "I"
"Vn_D0:p" "I"
"Vn_D1:n" "I"
"Vn_D1:p" "I"
"Vn_GND:n" "I"
"Vn_GND:p" "I"
"Vn_SD:n" "I"
"Vn_SD:p" "I"
"Vn_VDD:n" "I"
"Vn_VDD:p" "I"
"Vn_Z:n" "I"
"Vn_Z:p" "I"
VALUE
"time" 0.000000000000000e+00
"Vn_D0:v" 0.000000000000000e+00
"Vn_D0:i" 6.510570961348576e-14
"Vn_D0:pwr" 0.000000000000000e+00
"Vn_D1:v" 0.000000000000000e+00
"Vn_D1:i" -4.653010742690437e-13
"Vn_D1:pwr" -0.000000000000000e+00
"Vn_GND:v" 0.000000000000000e+00
"Vn_GND:i" 6.075187591979712e-10
"Vn_GND:pwr" 0.000000000000000e+00
"Vn_SD:v" 0.000000000000000e+00
"Vn_SD:i" -9.790769334738839e-13
"Vn_SD:pwr" -0.000000000000000e+00
"Vn_VDD:v" 1.200000000000000e+00
"Vn_VDD:i" -6.061394868998710e-10
"Vn_VDD:pwr" -7.273673842798453e-10
"Vn_Z:v" 0.000000000000000e+00
"Vn_Z:i" 0.000000000000000e+00
"Vn_Z:pwr" 0.000000000000000e+00
"n_Z" 1.410791788737778e-06
"n_D0" 0.000000000000000e+00
"n_D1" 1.200000000000000e+00
"n_SD" 1.200000000000000e+00
"Vn_D0:n" -6.510570961348576e-14
"Vn_D0:p" 6.510570961348576e-14
"Vn_D1:n" 4.653010742690437e-13
"Vn_D1:p" -4.653010742690437e-13
"Vn_GND:n" -6.075187591979712e-10
"Vn_GND:p" 6.075187591979712e-10
"Vn_SD:n" 9.790769334738839e-13
"Vn_SD:p" -9.790769334738839e-13
"Vn_VDD:n" 6.061394868998710e-10
"Vn_VDD:p" -6.061394868998710e-10
"Vn_Z:n" 0.000000000000000e+00
"Vn_Z:p" 0.000000000000000e+00
"time" 3.900000000000000e-11
"Vn_D0:v" 0.000000000000000e+00
"Vn_D0:i" 6.510783104392210e-14
"Vn_D0:pwr" 0.000000000000000e+00
"Vn_D1:v" 0.000000000000000e+00
"Vn_D1:i" -4.653011229005670e-13
"Vn_D1:pwr" -0.000000000000000e+00
"Vn_GND:v" 0.000000000000000e+00
"Vn_GND:i" 6.075187602048367e-10
"Vn_GND:pwr" 0.000000000000000e+00
"Vn_SD:v" 0.000000000000000e+00
"Vn_SD:i" -9.790771885667933e-13
"Vn_SD:pwr" -0.000000000000000e+00
"Vn_VDD:v" 1.200000000000000e+00
"Vn_VDD:i" -6.061394875889176e-10
"Vn_VDD:pwr" -7.273673851067010e-10
"Vn_Z:v" 0.000000000000000e+00
"Vn_Z:i" -2.135496114407140e-18
"Vn_Z:pwr" -0.000000000000000e+00
"n_Z" 1.410791772080908e-06
"n_D0" 0.000000000000000e+00
"n_D1" 1.200000000000000e+00
"n_SD" 1.200000000000000e+00
"Vn_D0:n" -6.510783104392210e-14
"Vn_D0:p" 6.510783104392210e-14
"Vn_D1:n" 4.653011229005670e-13
"Vn_D1:p" -4.653011229005670e-13
"Vn_GND:n" -6.075187602048367e-10
"Vn_GND:p" 6.075187602048367e-10
"Vn_SD:n" 9.790771885667933e-13
"Vn_SD:p" -9.790771885667933e-13
"Vn_VDD:n" 6.061394875889176e-10
"Vn_VDD:p" -6.061394875889176e-10
"Vn_Z:n" 2.135496114407140e-18
"Vn_Z:p" -2.135496114407140e-18
"time" 1.170000000000000e-10
"Vn_D0:v" 0.000000000000000e+00
"Vn_D0:i" 6.510783510279107e-14
"Vn_D0:pwr" 0.000000000000000e+00
"Vn_D1:v" 0.000000000000000e+00
"Vn_D1:i" -4.653010879318357e-13
"Vn_D1:pwr" -0.000000000000000e+00
"Vn_GND:v" 0.000000000000000e+00
"Vn_GND:i" 6.075187578791972e-10
"Vn_GND:pwr" 0.000000000000000e+00
"Vn_SD:v" 0.000000000000000e+00
"Vn_SD:i" -9.790770036943423e-13
"Vn_SD:pwr" -0.000000000000000e+00
"Vn_VDD:v" 1.200000000000000e+00
"Vn_VDD:i" -6.061394870956922e-10
"Vn_VDD:pwr" -7.273673845148306e-10
"Vn_Z:v" 0.000000000000000e+00
"Vn_Z:i" -5.354429156678126e-19
"Vn_Z:pwr" -0.000000000000000e+00
"n_Z" 1.410791763727999e-06
"n_D0" 0.000000000000000e+00
"n_D1" 1.200000000000000e+00
"n_SD" 1.200000000000000e+00
"Vn_D0:n" -6.510783510279107e-14
"Vn_D0:p" 6.510783510279107e-14
"Vn_D1:n" 4.653010879318357e-13
"Vn_D1:p" -4.653010879318357e-13
"Vn_GND:n" -6.075187578791972e-10
"Vn_GND:p" 6.075187578791972e-10
"Vn_SD:n" 9.790770036943423e-13
"Vn_SD:p" -9.790770036943423e-13
"Vn_VDD:n" 6.061394870956922e-10
"Vn_VDD:p" -6.061394870956922e-10
"Vn_Z:n" 5.354429156678126e-19
"Vn_Z:p" -5.354429156678126e-19
"time" 2.730000000000000e-10
"Vn_D0:v" 0.000000000000000e+00
"Vn_D0:i" 6.510782925320871e-14
"Vn_D0:pwr" 0.000000000000000e+00
"Vn_D1:v" 0.000000000000000e+00
"Vn_D1:i" -4.653011044075735e-13
"Vn_D1:pwr" -0.000000000000000e+00
"Vn_GND:v" 0.000000000000000e+00
"Vn_GND:i" 6.075187557219608e-10
"Vn_GND:pwr" 0.000000000000000e+00
"Vn_SD:v" 0.000000000000000e+00
"Vn_SD:i" -9.790769092557881e-13
"Vn_SD:pwr" -0.000000000000000e+00
"Vn_VDD:v" 1.200000000000000e+00
"Vn_VDD:i" -6.061394870591861e-10
"Vn_VDD:pwr" -7.273673844710233e-10
"Vn_Z:v" 0.000000000000000e+00
"Vn_Z:i" 1.104760375646154e-19
"Vn_Z:pwr" 0.000000000000000e+00
"n_Z" 1.410791757098515e-06
"n_D0" 0.000000000000000e+00
"n_D1" 1.200000000000000e+00
"n_SD" 1.200000000000000e+00
"Vn_D0:n" -6.510782925320871e-14
"Vn_D0:p" 6.510782925320871e-14
"Vn_D1:n" 4.653011044075735e-13
"Vn_D1:p" -4.653011044075735e-13
"Vn_GND:n" -6.075187557219608e-10
"Vn_GND:p" 6.075187557219608e-10
"Vn_SD:n" 9.790769092557881e-13
"Vn_SD:p" -9.790769092557881e-13
"Vn_VDD:n" 6.061394870591861e-10
"Vn_VDD:p" -6.061394870591861e-10
"Vn_Z:n" -1.104760375646154e-19
"Vn_Z:p" 1.104760375646154e-19
"time" 5.850000000000002e-10
"Vn_D0:v" 0.000000000000000e+00
"Vn_D0:i" 6.510784224341949e-14
"Vn_D0:pwr" 0.000000000000000e+00
"Vn_D1:v" 0.000000000000000e+00
"Vn_D1:i" -4.653010390531978e-13
"Vn_D1:pwr" -0.000000000000000e+00
"Vn_GND:v" 0.000000000000000e+00
"Vn_GND:i" 6.075187582824951e-10
"Vn_GND:pwr" 0.000000000000000e+00
"Vn_SD:v" 0.000000000000000e+00
"Vn_SD:i" -9.790769231443307e-13
"Vn_SD:pwr" -0.000000000000000e+00
"Vn_VDD:v" 1.200000000000000e+00
"Vn_VDD:i" -6.061394866641530e-10
"Vn_VDD:pwr" -7.273673839969836e-10
"Vn_Z:v" 0.000000000000000e+00
"Vn_Z:i" 1.156017129886461e-19
"Vn_Z:pwr" 0.000000000000000e+00
"n_Z" 1.410791764152141e-06
"n_D0" 0.000000000000000e+00
"n_D1" 1.200000000000000e+00
"n_SD" 1.200000000000000e+00
"Vn_D0:n" -6.510784224341949e-14
"Vn_D0:p" 6.510784224341949e-14
"Vn_D1:n" 4.653010390531978e-13
"Vn_D1:p" -4.653010390531978e-13
"Vn_GND:n" -6.075187582824951e-10
"Vn_GND:p" 6.075187582824951e-10
"Vn_SD:n" 9.790769231443307e-13
"Vn_SD:p" -9.790769231443307e-13
"Vn_VDD:n" 6.061394866641530e-10
"Vn_VDD:p" -6.061394866641530e-10
"Vn_Z:n" -1.156017129886461e-19
"Vn_Z:p" 1.156017129886461e-19
"time" 1.209000000000000e-09
"Vn_D0:v" 0.000000000000000e+00
"Vn_D0:i" 6.510782391267261e-14
"Vn_D0:pwr" 0.000000000000000e+00
"Vn_D1:v" 0.000000000000000e+00
"Vn_D1:i" -4.653011456298315e-13
"Vn_D1:pwr" -0.000000000000000e+00
"Vn_GND:v" 0.000000000000000e+00
"Vn_GND:i" 6.075187561414657e-10
"Vn_GND:pwr" 0.000000000000000e+00
"Vn_SD:v" 0.000000000000000e+00
"Vn_SD:i" -9.790769533902700e-13
"Vn_SD:pwr" -0.000000000000000e+00
"Vn_VDD:v" 1.200000000000000e+00
"Vn_VDD:i" -6.061394873742056e-10
"Vn_VDD:pwr" -7.273673848490466e-10
"Vn_Z:v" 0.000000000000000e+00
"Vn_Z:i" -2.016842370649051e-19
"Vn_Z:pwr" -0.000000000000000e+00
"n_Z" 1.410791758780591e-06
"n_D0" 0.000000000000000e+00
"n_D1" 1.200000000000000e+00
"n_SD" 1.200000000000000e+00
"Vn_D0:n" -6.510782391267261e-14
"Vn_D0:p" 6.510782391267261e-14
"Vn_D1:n" 4.653011456298315e-13
"Vn_D1:p" -4.653011456298315e-13
"Vn_GND:n" -6.075187561414657e-10
"Vn_GND:p" 6.075187561414657e-10
"Vn_SD:n" 9.790769533902700e-13
"Vn_SD:p" -9.790769533902700e-13
"Vn_VDD:n" 6.061394873742056e-10
"Vn_VDD:p" -6.061394873742056e-10
"Vn_Z:n" 2.016842370649051e-19
"Vn_Z:p" -2.016842370649051e-19
"time" 1.989000000000000e-09
"Vn_D0:v" 0.000000000000000e+00
"Vn_D0:i" 6.510784195027180e-14
"Vn_D0:pwr" 0.000000000000000e+00
"Vn_D1:v" 0.000000000000000e+00
"Vn_D1:i" -4.653010029488074e-13
"Vn_D1:pwr" -0.000000000000000e+00
"Vn_GND:v" 0.000000000000000e+00
"Vn_GND:i" 6.075187561210364e-10
"Vn_GND:pwr" 0.000000000000000e+00
"Vn_SD:v" 0.000000000000000e+00
"Vn_SD:i" -9.790769138610911e-13
"Vn_SD:pwr" -0.000000000000000e+00
"Vn_VDD:v" 1.200000000000000e+00
"Vn_VDD:i" -6.061394864235106e-10
"Vn_VDD:pwr" -7.273673837082128e-10
"Vn_Z:v" 0.000000000000000e+00
"Vn_Z:i" 1.908876805453295e-19
"Vn_Z:pwr" 0.000000000000000e+00
"n_Z" 1.410791757938460e-06
"n_D0" 0.000000000000000e+00
"n_D1" 1.200000000000000e+00
"n_SD" 1.200000000000000e+00
"Vn_D0:n" -6.510784195027180e-14
"Vn_D0:p" 6.510784195027180e-14
"Vn_D1:n" 4.653010029488074e-13
"Vn_D1:p" -4.653010029488074e-13
"Vn_GND:n" -6.075187561210364e-10
"Vn_GND:p" 6.075187561210364e-10
"Vn_SD:n" 9.790769138610911e-13
"Vn_SD:p" -9.790769138610911e-13
"Vn_VDD:n" 6.061394864235106e-10
"Vn_VDD:p" -6.061394864235106e-10
"Vn_Z:n" -1.908876805453295e-19
"Vn_Z:p" 1.908876805453295e-19
"time" 2.769000000000001e-09
"Vn_D0:v" 0.000000000000000e+00
"Vn_D0:i" 6.510781813630968e-14
"Vn_D0:pwr" 0.000000000000000e+00
"Vn_D1:v" 0.000000000000000e+00
"Vn_D1:i" -4.653011752242207e-13
"Vn_D1:pwr" -0.000000000000000e+00
"Vn_GND:v" 0.000000000000000e+00
"Vn_GND:i" 6.075187581591635e-10
"Vn_GND:pwr" 0.000000000000000e+00
"Vn_SD:v" 0.000000000000000e+00
"Vn_SD:i" -9.790769407212464e-13
"Vn_SD:pwr" -0.000000000000000e+00
"Vn_VDD:v" 1.200000000000000e+00
"Vn_VDD:i" -6.061394875532553e-10
"Vn_VDD:pwr" -7.273673850639064e-10
"Vn_Z:v" 0.000000000000000e+00
"Vn_Z:i" -1.075244351350273e-19
"Vn_Z:pwr" -0.000000000000000e+00
"n_Z" 1.410791764440793e-06
"n_D0" 0.000000000000000e+00
"n_D1" 1.200000000000000e+00
"n_SD" 1.200000000000000e+00
"Vn_D0:n" -6.510781813630968e-14
"Vn_D0:p" 6.510781813630968e-14
"Vn_D1:n" 4.653011752242207e-13
"Vn_D1:p" -4.653011752242207e-13
"Vn_GND:n" -6.075187581591635e-10
"Vn_GND:p" 6.075187581591635e-10
"Vn_SD:n" 9.790769407212464e-13
"Vn_SD:p" -9.790769407212464e-13
"Vn_VDD:n" 6.061394875532553e-10
"Vn_VDD:p" -6.061394875532553e-10
"Vn_Z:n" 1.075244351350273e-19
"Vn_Z:p" -1.075244351350273e-19
"time" 3.000000000000000e-09
"Vn_D0:v" 0.000000000000000e+00
"Vn_D0:i" 6.510784274384962e-14
"Vn_D0:pwr" 0.000000000000000e+00
"Vn_D1:v" 0.000000000000000e+00
"Vn_D1:i" -4.653008563661204e-13
"Vn_D1:pwr" -0.000000000000000e+00
"Vn_GND:v" 0.000000000000000e+00
"Vn_GND:i" 6.075187564859887e-10
"Vn_GND:pwr" 0.000000000000000e+00
"Vn_SD:v" 0.000000000000000e+00
"Vn_SD:i" -9.790769549492659e-13
"Vn_SD:pwr" -0.000000000000000e+00
"Vn_VDD:v" 1.200000000000000e+00
"Vn_VDD:i" -6.061394854910151e-10
"Vn_VDD:pwr" -7.273673825892181e-10
"Vn_Z:v" 0.000000000000000e+00
"Vn_Z:i" -1.344705307111668e-19
"Vn_Z:pwr" -0.000000000000000e+00
"n_Z" 1.410791758850710e-06
"n_D0" 0.000000000000000e+00
"n_D1" 1.200000000000000e+00
"n_SD" 1.200000000000000e+00
"Vn_D0:n" -6.510784274384962e-14
"Vn_D0:p" 6.510784274384962e-14
"Vn_D1:n" 4.653008563661204e-13
"Vn_D1:p" -4.653008563661204e-13
"Vn_GND:n" -6.075187564859887e-10
"Vn_GND:p" 6.075187564859887e-10
"Vn_SD:n" 9.790769549492659e-13
"Vn_SD:p" -9.790769549492659e-13
"Vn_VDD:n" 6.061394854910151e-10
"Vn_VDD:p" -6.061394854910151e-10
"Vn_Z:n" 1.344705307111668e-19
"Vn_Z:p" -1.344705307111668e-19
"time" 3.000020850694444e-09
"Vn_D0:v" 0.000000000000000e+00
"Vn_D0:i" -6.871678921442672e-07
"Vn_D0:pwr" -0.000000000000000e+00
"Vn_D1:v" 0.000000000000000e+00
"Vn_D1:i" -1.273506158198040e-06
"Vn_D1:pwr" -0.000000000000000e+00
"Vn_GND:v" 0.000000000000000e+00
"Vn_GND:i" -7.687135475932007e-05
"Vn_GND:pwr" -0.000000000000000e+00
"Vn_SD:v" 0.000000000000000e+00
"Vn_SD:i" 1.963879391607674e-04
"Vn_SD:pwr" 0.000000000000000e+00
"Vn_VDD:v" 1.200000000000000e+00
"Vn_VDD:i" -1.081731126439396e-04
"Vn_VDD:pwr" -1.298077351727276e-04
"Vn_Z:v" 0.000000000000000e+00
"Vn_Z:i" -9.382797707143787e-06
"Vn_Z:pwr" -0.000000000000000e+00
"n_Z" -3.771677784584596e-05
"n_D0" 0.000000000000000e+00
"n_D1" 1.200000000000000e+00
"n_SD" 1.197497916666695e+00
"Vn_D0:n" 6.871678921442672e-07
"Vn_D0:p" -6.871678921442672e-07
"Vn_D1:n" 1.273506158198040e-06
"Vn_D1:p" -1.273506158198040e-06
"Vn_GND:n" 7.687135475932007e-05
"Vn_GND:p" -7.687135475932007e-05
"Vn_SD:n" -1.963879391607674e-04
"Vn_SD:p" 1.963879391607674e-04
"Vn_VDD:n" 1.081731126439396e-04
"Vn_VDD:p" -1.081731126439396e-04
"Vn_Z:n" 9.382797707143787e-06
"Vn_Z:p" -9.382797707143787e-06
"time" 3.000062552083333e-09
"Vn_D0:v" 0.000000000000000e+00
"Vn_D0:i" -1.979749046662978e-06
"Vn_D0:pwr" -0.000000000000000e+00
"Vn_D1:v" 0.000000000000000e+00
"Vn_D1:i" -3.417236596406189e-06
"Vn_D1:pwr" -0.000000000000000e+00
"Vn_GND:v" 0.000000000000000e+00
"Vn_GND:i" -7.247169427061344e-05
"Vn_GND:pwr" -0.000000000000000e+00
"Vn_SD:v" 0.000000000000000e+00
"Vn_SD:i" 2.094780303326180e-04
"Vn_SD:pwr" 0.000000000000000e+00
"Vn_VDD:v" 1.200000000000000e+00
"Vn_VDD:i" -1.073770530517837e-04
"Vn_VDD:pwr" -1.288524636621405e-04
"Vn_Z:v" 0.000000000000000e+00
"Vn_Z:i" -2.423229736710132e-05
"Vn_Z:pwr" -0.000000000000000e+00
"n_Z" -1.778963930670724e-04
"n_D0" 0.000000000000000e+00
"n_D1" 1.200000000000000e+00
"n_SD" 1.192493750000085e+00
"Vn_D0:n" 1.979749046662978e-06
"Vn_D0:p" -1.979749046662978e-06
"Vn_D1:n" 3.417236596406189e-06
"Vn_D1:p" -3.417236596406189e-06
"Vn_GND:n" 7.247169427061344e-05
"Vn_GND:p" -7.247169427061344e-05
"Vn_SD:n" -2.094780303326180e-04
"Vn_SD:p" 2.094780303326180e-04
"Vn_VDD:n" 1.073770530517837e-04
"Vn_VDD:p" -1.073770530517837e-04
"Vn_Z:n" 2.423229736710132e-05
"Vn_Z:p" -2.423229736710132e-05
"time" 3.000145954861109e-09
"Vn_D0:v" 0.000000000000000e+00
"Vn_D0:i" -4.033736790984518e-06
"Vn_D0:pwr" -0.000000000000000e+00
"Vn_D1:v" 0.000000000000000e+00
"Vn_D1:i" -5.714669789475568e-06
"Vn_D1:pwr" -0.000000000000000e+00
"Vn_GND:v" 0.000000000000000e+00
"Vn_GND:i" -6.917881230390169e-05
"Vn_GND:pwr" -0.000000000000000e+00
"Vn_SD:v" 0.000000000000000e+00
"Vn_SD:i" 2.228401118189161e-04
"Vn_SD:pwr" 0.000000000000000e+00
"Vn_VDD:v" 1.200000000000000e+00
"Vn_VDD:i" -1.057743455272057e-04
"Vn_VDD:pwr" -1.269292146326468e-04
"Vn_Z:v" 0.000000000000000e+00
"Vn_Z:i" -3.813854740735719e-05
"Vn_Z:pwr" -0.000000000000000e+00
"n_Z" -6.980865637148511e-04
"n_D0" 0.000000000000000e+00
"n_D1" 1.200000000000000e+00
"n_SD" 1.182485416666864e+00
"Vn_D0:n" 4.033736790984518e-06
"Vn_D0:p" -4.033736790984518e-06
"Vn_D1:n" 5.714669789475568e-06
"Vn_D1:p" -5.714669789475568e-06
"Vn_GND:n" 6.917881230390169e-05
"Vn_GND:p" -6.917881230390169e-05
"Vn_SD:n" -2.228401118189161e-04
"Vn_SD:p" 2.228401118189161e-04
"Vn_VDD:n" 1.057743455272057e-04
"Vn_VDD:p" -1.057743455272057e-04
"Vn_Z:n" 3.813854740735719e-05
"Vn_Z:p" -3.813854740735719e-05
"time" 3.000312760416663e-09
"Vn_D0:v" 0.000000000000000e+00
"Vn_D0:i" -6.420229052513716e-06
"Vn_D0:pwr" -0.000000000000000e+00
"Vn_D1:v" 0.000000000000000e+00
"Vn_D1:i" -6.614366351492976e-06
"Vn_D1:pwr" -0.000000000000000e+00
"Vn_GND:v" 0.000000000000000e+00
"Vn_GND:i" -7.008053361382769e-05
"Vn_GND:pwr" -0.000000000000000e+00
"Vn_SD:v" 0.000000000000000e+00
"Vn_SD:i" 2.322058314039750e-04
"Vn_SD:pwr" 0.000000000000000e+00
"Vn_VDD:v" 1.200000000000000e+00
"Vn_VDD:i" -1.053821098343073e-04
"Vn_VDD:pwr" -1.264585318011687e-04
"Vn_Z:v" 0.000000000000000e+00
"Vn_Z:i" -4.370859255181454e-05
"Vn_Z:pwr" -0.000000000000000e+00
"n_Z" -2.063342328851754e-03
"n_D0" 0.000000000000000e+00
"n_D1" 1.200000000000000e+00
"n_SD" 1.162468750000424e+00
"Vn_D0:n" 6.420229052513716e-06
"Vn_D0:p" -6.420229052513716e-06
"Vn_D1:n" 6.614366351492976e-06
"Vn_D1:p" -6.614366351492976e-06
"Vn_GND:n" 7.008053361382769e-05
"Vn_GND:p" -7.008053361382769e-05
"Vn_SD:n" -2.322058314039750e-04
"Vn_SD:p" 2.322058314039750e-04
"Vn_VDD:n" 1.053821098343073e-04
"Vn_VDD:p" -1.053821098343073e-04
"Vn_Z:n" 4.370859255181454e-05
"Vn_Z:p" -4.370859255181454e-05
"time" 3.000565861772966e-09
"Vn_D0:v" 0.000000000000000e+00
"Vn_D0:i" -7.637758672213387e-06
"Vn_D0:pwr" -0.000000000000000e+00
"Vn_D1:v" 0.000000000000000e+00
"Vn_D1:i" -5.552093162825673e-06
"Vn_D1:pwr" -0.000000000000000e+00
"Vn_GND:v" 0.000000000000000e+00
"Vn_GND:i" -7.421268656312237e-05
"Vn_GND:pwr" -0.000000000000000e+00
"Vn_SD:v" 0.000000000000000e+00
"Vn_SD:i" 2.359598855896425e-04
"Vn_SD:pwr" 0.000000000000000e+00
"Vn_VDD:v" 1.200000000000000e+00
"Vn_VDD:i" -1.049874207368223e-04
"Vn_VDD:pwr" -1.259849048841868e-04
"Vn_Z:v" 0.000000000000000e+00
"Vn_Z:i" -4.356992645469793e-05
"Vn_Z:pwr" -0.000000000000000e+00
"n_Z" -4.272373482513402e-03
"n_D0" 0.000000000000000e+00
"n_D1" 1.200000000000000e+00
"n_SD" 1.132096587244132e+00
"Vn_D0:n" 7.637758672213387e-06
"Vn_D0:p" -7.637758672213387e-06
"Vn_D1:n" 5.552093162825673e-06
"Vn_D1:p" -5.552093162825673e-06
"Vn_GND:n" 7.421268656312237e-05
"Vn_GND:p" -7.421268656312237e-05
"Vn_SD:n" -2.359598855896425e-04
"Vn_SD:p" 2.359598855896425e-04
"Vn_VDD:n" 1.049874207368223e-04
"Vn_VDD:p" -1.049874207368223e-04
"Vn_Z:n" 4.356992645469793e-05
"Vn_Z:p" -4.356992645469793e-05
"time" 3.000933643203660e-09
"Vn_D0:v" 0.000000000000000e+00
"Vn_D0:i" -7.675434274156953e-06
"Vn_D0:pwr" -0.000000000000000e+00
"Vn_D1:v" 0.000000000000000e+00
"Vn_D1:i" -4.240480288151452e-06
"Vn_D1:pwr" -0.000000000000000e+00
"Vn_GND:v" 0.000000000000000e+00
"Vn_GND:i" -7.939509568466784e-05
"Vn_GND:pwr" -0.000000000000000e+00
"Vn_SD:v" 0.000000000000000e+00
"Vn_SD:i" 2.382197813021044e-04
"Vn_SD:pwr" 0.000000000000000e+00
"Vn_VDD:v" 1.200000000000000e+00
"Vn_VDD:i" -1.030167467712287e-04
"Vn_VDD:pwr" -1.236200961254744e-04
"Vn_Z:v" 0.000000000000000e+00
