HEADER
"PSFversion" "1.00"
"simulator" "spectre"
"version" "10.1.1.164.isr11"
"date" "3:02:49 PM, Fri Oct 17, 2014"
"design" "* Spectre Timing Acquisition"
"analysis type" "tran"
"analysis name" "transient1-001_transient1"
"analysis description" "Transient Analysis `transient1-001_transient1': time = (0 s -> 39 ns)"
"xVecSorted" "ascending"
"tolerance.relative" 0.00100000
"start" 0.00000
"outputstart" 0.00000
"stop" 3.90000e-08
"step" 3.90000e-11
"maxstep" 7.80000e-10
"ic" "all"
"useprevic" "no"
"skipdc" "no"
"reltol" 0.00100000
"abstol(V)" 1.00000e-06
"abstol(I)" 1.00000e-12
"temp" 25.0000
"tnom" 27.0000
"tempeffects" "all"
"errpreset" "moderate"
"method" "traponly"
"lteratio" 3.50000
"relref" "sigglobal"
"cmin" 0.00000
"gmin" 1.00000e-12
TYPE
"sweep" FLOAT DOUBLE PROP(
"key" "sweep"
)
"Tau" FLOAT DOUBLE PROP(
"units" "N*m"
"key" "node"
"tolerance" 1.00000e-06
)
"Alpha" FLOAT DOUBLE PROP(
"units" "rads/s^2"
"key" "node"
"tolerance" 1.00000e-06
)
"Omega" FLOAT DOUBLE PROP(
"units" "rads/s"
"key" "node"
"tolerance" 1.00000e-06
)
"Theta" FLOAT DOUBLE PROP(
"units" "rads"
"key" "node"
"tolerance" 1.00000e-06
)
"F" FLOAT DOUBLE PROP(
"units" "N"
"key" "node"
"tolerance" 1.00000e-06
)
"Imp" FLOAT DOUBLE PROP(
"units" "m/s^3"
"key" "node"
"tolerance" 1.00000e-06
)
"Acc" FLOAT DOUBLE PROP(
"units" "m/s^2"
"key" "node"
"tolerance" 1.00000e-06
)
"Vel" FLOAT DOUBLE PROP(
"units" "m/s"
"key" "node"
"tolerance" 1.00000e-06
)
"Pos" FLOAT DOUBLE PROP(
"units" "m"
"key" "node"
"tolerance" 1.00000e-06
)
"Phi" FLOAT DOUBLE PROP(
"units" "Wb"
"key" "node"
"tolerance" 1.00000e-09
)
"Q" FLOAT DOUBLE PROP(
"units" "coul"
"key" "node"
"tolerance" 1.00000e-14
)
"V" FLOAT DOUBLE PROP(
"units" "V"
"key" "node"
"tolerance" 1.00000e-06
)
"I" FLOAT DOUBLE PROP(
"units" "A"
"key" "branch"
"tolerance" 1.00000e-12
)
"MMF" FLOAT DOUBLE PROP(
"units" "A*turn"
"key" "node"
"tolerance" 1.00000e-12
)
"Wb" FLOAT DOUBLE PROP(
"units" "Wb"
"key" "node"
"tolerance" 1.00000e-09
)
"Temp" FLOAT DOUBLE PROP(
"units" "C"
"key" "node"
"tolerance" 0.000100000
)
"Pwr" FLOAT DOUBLE PROP(
"units" "W"
"key" "node"
"tolerance" 1.00000e-09
)
"U" FLOAT DOUBLE PROP(
"units" ""
"key" "node"
"tolerance" 1.00000e-06
)
"V/Sec" FLOAT DOUBLE PROP(
"units" "V/s"
"key" "node"
"tolerance" 0.000100000
)
"I/Sec" FLOAT DOUBLE PROP(
"units" "A/s"
"key" "node"
"tolerance" 1.00000e-06
)
"1/Sec" FLOAT DOUBLE PROP(
"units" "1/s"
"key" "node"
"tolerance" 0.000100000
)
"HOD" FLOAT DOUBLE PROP(
"units" ""
"key" "node"
"tolerance" 0.0100000
)
"A" FLOAT DOUBLE PROP(
"key" "inst"
)
"W" FLOAT DOUBLE PROP(
"key" "inst"
)
SWEEP
"time" "sweep" PROP(
"sweep_direction" 0
"units" "s"
"plot" 0
"grid" 1
)
TRACE
"Vn_D0:v" "V" PROP(
"units" "V"
)
"Vn_D0:i" "A" PROP(
"units" "A"
)
"Vn_D0:pwr" "W" PROP(
"units" "W"
)
"Vn_D1:v" "V" PROP(
"units" "V"
)
"Vn_D1:i" "A" PROP(
"units" "A"
)
"Vn_D1:pwr" "W" PROP(
"units" "W"
)
"Vn_GND:v" "V" PROP(
"units" "V"
)
"Vn_GND:i" "A" PROP(
"units" "A"
)
"Vn_GND:pwr" "W" PROP(
"units" "W"
)
"Vn_SD:v" "V" PROP(
"units" "V"
)
"Vn_SD:i" "A" PROP(
"units" "A"
)
"Vn_SD:pwr" "W" PROP(
"units" "W"
)
"Vn_VDD:v" "V" PROP(
"units" "V"
)
"Vn_VDD:i" "A" PROP(
"units" "A"
)
"Vn_VDD:pwr" "W" PROP(
"units" "W"
)
"Vn_Z:v" "V" PROP(
"units" "V"
)
"Vn_Z:i" "A" PROP(
"units" "A"
)
"Vn_Z:pwr" "W" PROP(
"units" "W"
)
"n_Z" "V"
"n_D0" "V"
"n_D1" "V"
"n_SD" "V"
"Vn_D0:n" "I"
"Vn_D0:p" "I"
"Vn_D1:n" "I"
"Vn_D1:p" "I"
"Vn_GND:n" "I"
"Vn_GND:p" "I"
"Vn_SD:n" "I"
"Vn_SD:p" "I"
"Vn_VDD:n" "I"
"Vn_VDD:p" "I"
"Vn_Z:n" "I"
"Vn_Z:p" "I"
VALUE
"time" 0.000000000000000e+00
"Vn_D0:v" 0.000000000000000e+00
"Vn_D0:i" 6.510570961348576e-14
"Vn_D0:pwr" 0.000000000000000e+00
"Vn_D1:v" 0.000000000000000e+00
"Vn_D1:i" -4.653010742690437e-13
"Vn_D1:pwr" -0.000000000000000e+00
"Vn_GND:v" 0.000000000000000e+00
"Vn_GND:i" 6.075187591979712e-10
"Vn_GND:pwr" 0.000000000000000e+00
"Vn_SD:v" 0.000000000000000e+00
"Vn_SD:i" -9.790769334738837e-13
"Vn_SD:pwr" -0.000000000000000e+00
"Vn_VDD:v" 1.200000000000000e+00
"Vn_VDD:i" -6.061394868998710e-10
"Vn_VDD:pwr" -7.273673842798453e-10
"Vn_Z:v" 0.000000000000000e+00
"Vn_Z:i" 0.000000000000000e+00
"Vn_Z:pwr" 0.000000000000000e+00
"n_Z" 1.410791788780142e-06
"n_D0" 0.000000000000000e+00
"n_D1" 1.200000000000000e+00
"n_SD" 1.200000000000000e+00
"Vn_D0:n" -6.510570961348576e-14
"Vn_D0:p" 6.510570961348576e-14
"Vn_D1:n" 4.653010742690437e-13
"Vn_D1:p" -4.653010742690437e-13
"Vn_GND:n" -6.075187591979712e-10
"Vn_GND:p" 6.075187591979712e-10
"Vn_SD:n" 9.790769334738837e-13
"Vn_SD:p" -9.790769334738837e-13
"Vn_VDD:n" 6.061394868998710e-10
"Vn_VDD:p" -6.061394868998710e-10
"Vn_Z:n" 0.000000000000000e+00
"Vn_Z:p" 0.000000000000000e+00
"time" 3.900000000000000e-11
"Vn_D0:v" 0.000000000000000e+00
"Vn_D0:i" 6.510783104392262e-14
"Vn_D0:pwr" 0.000000000000000e+00
"Vn_D1:v" 0.000000000000000e+00
"Vn_D1:i" -4.653011229005638e-13
"Vn_D1:pwr" -0.000000000000000e+00
"Vn_GND:v" 0.000000000000000e+00
"Vn_GND:i" 6.075187602048367e-10
"Vn_GND:pwr" 0.000000000000000e+00
"Vn_SD:v" 0.000000000000000e+00
"Vn_SD:i" -9.790771885667943e-13
"Vn_SD:pwr" -0.000000000000000e+00
"Vn_VDD:v" 1.200000000000000e+00
"Vn_VDD:i" -6.061394875889174e-10
"Vn_VDD:pwr" -7.273673851067009e-10
"Vn_Z:v" 0.000000000000000e+00
"Vn_Z:i" -2.135496119358137e-18
"Vn_Z:pwr" -0.000000000000000e+00
"n_Z" 1.410791772123273e-06
"n_D0" 0.000000000000000e+00
"n_D1" 1.200000000000000e+00
"n_SD" 1.200000000000000e+00
"Vn_D0:n" -6.510783104392262e-14
"Vn_D0:p" 6.510783104392262e-14
"Vn_D1:n" 4.653011229005638e-13
"Vn_D1:p" -4.653011229005638e-13
"Vn_GND:n" -6.075187602048367e-10
"Vn_GND:p" 6.075187602048367e-10
"Vn_SD:n" 9.790771885667943e-13
"Vn_SD:p" -9.790771885667943e-13
"Vn_VDD:n" 6.061394875889174e-10
"Vn_VDD:p" -6.061394875889174e-10
"Vn_Z:n" 2.135496119358137e-18
"Vn_Z:p" -2.135496119358137e-18
"time" 1.170000000000000e-10
"Vn_D0:v" 0.000000000000000e+00
"Vn_D0:i" 6.510783509846199e-14
"Vn_D0:pwr" 0.000000000000000e+00
"Vn_D1:v" 0.000000000000000e+00
"Vn_D1:i" -4.653010891717830e-13
"Vn_D1:pwr" -0.000000000000000e+00
"Vn_GND:v" 0.000000000000000e+00
"Vn_GND:i" 6.075187578832497e-10
"Vn_GND:pwr" 0.000000000000000e+00
"Vn_SD:v" 0.000000000000000e+00
"Vn_SD:i" -9.790770041265022e-13
"Vn_SD:pwr" -0.000000000000000e+00
"Vn_VDD:v" 1.200000000000000e+00
"Vn_VDD:i" -6.061394870857056e-10
"Vn_VDD:pwr" -7.273673845028467e-10
"Vn_Z:v" 0.000000000000000e+00
"Vn_Z:i" -5.413325200962946e-19
"Vn_Z:pwr" -0.000000000000000e+00
"n_Z" 1.410791763678485e-06
"n_D0" 0.000000000000000e+00
"n_D1" 1.200000000000000e+00
"n_SD" 1.200000000000000e+00
"Vn_D0:n" -6.510783509846199e-14
"Vn_D0:p" 6.510783509846199e-14
"Vn_D1:n" 4.653010891717830e-13
"Vn_D1:p" -4.653010891717830e-13
"Vn_GND:n" -6.075187578832497e-10
"Vn_GND:p" 6.075187578832497e-10
"Vn_SD:n" 9.790770041265022e-13
"Vn_SD:p" -9.790770041265022e-13
"Vn_VDD:n" 6.061394870857056e-10
"Vn_VDD:p" -6.061394870857056e-10
"Vn_Z:n" 5.413325200962946e-19
"Vn_Z:p" -5.413325200962946e-19
"time" 2.730000000000000e-10
"Vn_D0:v" 0.000000000000000e+00
"Vn_D0:i" 6.510782941355267e-14
"Vn_D0:pwr" 0.000000000000000e+00
"Vn_D1:v" 0.000000000000000e+00
"Vn_D1:i" -4.653009433105719e-13
"Vn_D1:pwr" -0.000000000000000e+00
"Vn_GND:v" 0.000000000000000e+00
"Vn_GND:i" 6.075187559145980e-10
"Vn_GND:pwr" 0.000000000000000e+00
"Vn_SD:v" 0.000000000000000e+00
"Vn_SD:i" -9.790769112423265e-13
"Vn_SD:pwr" -0.000000000000000e+00
"Vn_VDD:v" 1.200000000000000e+00
"Vn_VDD:i" -6.061394860459953e-10
"Vn_VDD:pwr" -7.273673832551944e-10
"Vn_Z:v" 0.000000000000000e+00
"Vn_Z:i" 1.242876949788034e-19
"Vn_Z:pwr" 0.000000000000000e+00
"n_Z" 1.410791757172586e-06
"n_D0" 0.000000000000000e+00
"n_D1" 1.200000000000000e+00
"n_SD" 1.200000000000000e+00
"Vn_D0:n" -6.510782941355267e-14
"Vn_D0:p" 6.510782941355267e-14
"Vn_D1:n" 4.653009433105719e-13
"Vn_D1:p" -4.653009433105719e-13
"Vn_GND:n" -6.075187559145980e-10
"Vn_GND:p" 6.075187559145980e-10
"Vn_SD:n" 9.790769112423265e-13
"Vn_SD:p" -9.790769112423265e-13
"Vn_VDD:n" 6.061394860459953e-10
"Vn_VDD:p" -6.061394860459953e-10
"Vn_Z:n" -1.242876949788034e-19
"Vn_Z:p" 1.242876949788034e-19
"time" 5.850000000000002e-10
"Vn_D0:v" 0.000000000000000e+00
"Vn_D0:i" 6.510784181128049e-14
"Vn_D0:pwr" 0.000000000000000e+00
"Vn_D1:v" 0.000000000000000e+00
"Vn_D1:i" -4.653012940921103e-13
"Vn_D1:pwr" -0.000000000000000e+00
"Vn_GND:v" 0.000000000000000e+00
"Vn_GND:i" 6.075187579819852e-10
"Vn_GND:pwr" 0.000000000000000e+00
"Vn_SD:v" 0.000000000000000e+00
"Vn_SD:i" -9.790769218333746e-13
"Vn_SD:pwr" -0.000000000000000e+00
"Vn_VDD:v" 1.200000000000000e+00
"Vn_VDD:i" -6.061394882998775e-10
"Vn_VDD:pwr" -7.273673859598530e-10
"Vn_Z:v" 0.000000000000000e+00
"Vn_Z:i" 9.946786430521031e-20
"Vn_Z:pwr" 0.000000000000000e+00
"n_Z" 1.410791764153759e-06
"n_D0" 0.000000000000000e+00
"n_D1" 1.200000000000000e+00
"n_SD" 1.200000000000000e+00
"Vn_D0:n" -6.510784181128049e-14
"Vn_D0:p" 6.510784181128049e-14
"Vn_D1:n" 4.653012940921103e-13
"Vn_D1:p" -4.653012940921103e-13
"Vn_GND:n" -6.075187579819852e-10
"Vn_GND:p" 6.075187579819852e-10
"Vn_SD:n" 9.790769218333746e-13
"Vn_SD:p" -9.790769218333746e-13
"Vn_VDD:n" 6.061394882998775e-10
"Vn_VDD:p" -6.061394882998775e-10
"Vn_Z:n" -9.946786430521031e-20
"Vn_Z:p" 9.946786430521031e-20
"time" 1.209000000000000e-09
"Vn_D0:v" 0.000000000000000e+00
"Vn_D0:i" 6.510782420918716e-14
"Vn_D0:pwr" 0.000000000000000e+00
"Vn_D1:v" 0.000000000000000e+00
"Vn_D1:i" -4.653008270414581e-13
"Vn_D1:pwr" -0.000000000000000e+00
"Vn_GND:v" 0.000000000000000e+00
"Vn_GND:i" 6.075187562579936e-10
"Vn_GND:pwr" 0.000000000000000e+00
"Vn_SD:v" 0.000000000000000e+00
"Vn_SD:i" -9.790769579080478e-13
"Vn_SD:pwr" -0.000000000000000e+00
"Vn_VDD:v" 1.200000000000000e+00
"Vn_VDD:i" -6.061394853274969e-10
"Vn_VDD:pwr" -7.273673823929962e-10
"Vn_Z:v" 0.000000000000000e+00
"Vn_Z:i" -1.970850059089887e-19
"Vn_Z:pwr" -0.000000000000000e+00
"n_Z" 1.410791758062449e-06
"n_D0" 0.000000000000000e+00
"n_D1" 1.200000000000000e+00
"n_SD" 1.200000000000000e+00
"Vn_D0:n" -6.510782420918716e-14
"Vn_D0:p" 6.510782420918716e-14
"Vn_D1:n" 4.653008270414581e-13
"Vn_D1:p" -4.653008270414581e-13
"Vn_GND:n" -6.075187562579936e-10
"Vn_GND:p" 6.075187562579936e-10
"Vn_SD:n" 9.790769579080478e-13
"Vn_SD:p" -9.790769579080478e-13
"Vn_VDD:n" 6.061394853274969e-10
"Vn_VDD:p" -6.061394853274969e-10
"Vn_Z:n" 1.970850059089887e-19
"Vn_Z:p" -1.970850059089887e-19
"time" 1.989000000000000e-09
"Vn_D0:v" 0.000000000000000e+00
"Vn_D0:i" 6.510784191809624e-14
"Vn_D0:pwr" 0.000000000000000e+00
"Vn_D1:v" 0.000000000000000e+00
"Vn_D1:i" -4.653013514800775e-13
"Vn_D1:pwr" -0.000000000000000e+00
"Vn_GND:v" 0.000000000000000e+00
"Vn_GND:i" 6.075187578020275e-10
"Vn_GND:pwr" 0.000000000000000e+00
"Vn_SD:v" 0.000000000000000e+00
"Vn_SD:i" -9.790768994943309e-13
"Vn_SD:pwr" -0.000000000000000e+00
"Vn_VDD:v" 1.200000000000000e+00
"Vn_VDD:i" -6.061394886604004e-10
"Vn_VDD:pwr" -7.273673863924805e-10
"Vn_Z:v" 0.000000000000000e+00
"Vn_Z:i" 2.693479678693624e-19
"Vn_Z:pwr" 0.000000000000000e+00
"n_Z" 1.410791763698960e-06
"n_D0" 0.000000000000000e+00
"n_D1" 1.200000000000000e+00
"n_SD" 1.200000000000000e+00
"Vn_D0:n" -6.510784191809624e-14
"Vn_D0:p" 6.510784191809624e-14
"Vn_D1:n" 4.653013514800775e-13
"Vn_D1:p" -4.653013514800775e-13
"Vn_GND:n" -6.075187578020275e-10
"Vn_GND:p" 6.075187578020275e-10
"Vn_SD:n" 9.790768994943309e-13
"Vn_SD:p" -9.790768994943309e-13
"Vn_VDD:n" 6.061394886604004e-10
"Vn_VDD:p" -6.061394886604004e-10
"Vn_Z:n" -2.693479678693624e-19
"Vn_Z:p" 2.693479678693624e-19
"time" 2.769000000000001e-09
"Vn_D0:v" 0.000000000000000e+00
"Vn_D0:i" 6.510781830182596e-14
"Vn_D0:pwr" 0.000000000000000e+00
"Vn_D1:v" 0.000000000000000e+00
"Vn_D1:i" -4.653007985899259e-13
"Vn_D1:pwr" -0.000000000000000e+00
"Vn_GND:v" 0.000000000000000e+00
"Vn_GND:i" 6.075187564216463e-10
"Vn_GND:pwr" 0.000000000000000e+00
"Vn_SD:v" 0.000000000000000e+00
"Vn_SD:i" -9.790769747930120e-13
"Vn_SD:pwr" -0.000000000000000e+00
"Vn_VDD:v" 1.200000000000000e+00
"Vn_VDD:i" -6.061394851603002e-10
"Vn_VDD:pwr" -7.273673821923602e-10
"Vn_Z:v" 0.000000000000000e+00
"Vn_Z:i" -3.351539757703157e-19
"Vn_Z:pwr" -0.000000000000000e+00
"n_Z" 1.410791758566092e-06
"n_D0" 0.000000000000000e+00
"n_D1" 1.200000000000000e+00
"n_SD" 1.200000000000000e+00
"Vn_D0:n" -6.510781830182596e-14
"Vn_D0:p" 6.510781830182596e-14
"Vn_D1:n" 4.653007985899259e-13
"Vn_D1:p" -4.653007985899259e-13
"Vn_GND:n" -6.075187564216463e-10
"Vn_GND:p" 6.075187564216463e-10
"Vn_SD:n" 9.790769747930120e-13
"Vn_SD:p" -9.790769747930120e-13
"Vn_VDD:n" 6.061394851603002e-10
"Vn_VDD:p" -6.061394851603002e-10
"Vn_Z:n" 3.351539757703157e-19
"Vn_Z:p" -3.351539757703157e-19
"time" 3.000000000000000e-09
"Vn_D0:v" 0.000000000000000e+00
"Vn_D0:i" 6.510784241921473e-14
"Vn_D0:pwr" 0.000000000000000e+00
"Vn_D1:v" 0.000000000000000e+00
"Vn_D1:i" -4.653015022521262e-13
"Vn_D1:pwr" -0.000000000000000e+00
"Vn_GND:v" 0.000000000000000e+00
"Vn_GND:i" 6.075187573111343e-10
"Vn_GND:pwr" 0.000000000000000e+00
"Vn_SD:v" 0.000000000000000e+00
"Vn_SD:i" -9.790768733721866e-13
"Vn_SD:pwr" -0.000000000000000e+00
"Vn_VDD:v" 1.200000000000000e+00
"Vn_VDD:i" -6.061394896133883e-10
"Vn_VDD:pwr" -7.273673875360659e-10
"Vn_Z:v" 0.000000000000000e+00
"Vn_Z:i" 5.162534728350462e-19
"Vn_Z:pwr" 0.000000000000000e+00
"n_Z" 1.410791762749490e-06
"n_D0" 0.000000000000000e+00
"n_D1" 1.200000000000000e+00
"n_SD" 1.200000000000000e+00
"Vn_D0:n" -6.510784241921473e-14
"Vn_D0:p" 6.510784241921473e-14
"Vn_D1:n" 4.653015022521262e-13
"Vn_D1:p" -4.653015022521262e-13
"Vn_GND:n" -6.075187573111343e-10
"Vn_GND:p" 6.075187573111343e-10
"Vn_SD:n" 9.790768733721866e-13
"Vn_SD:p" -9.790768733721866e-13
"Vn_VDD:n" 6.061394896133883e-10
"Vn_VDD:p" -6.061394896133883e-10
"Vn_Z:n" -5.162534728350462e-19
"Vn_Z:p" 5.162534728350462e-19
"time" 3.000020850694444e-09
"Vn_D0:v" 0.000000000000000e+00
"Vn_D0:i" -6.871678921443343e-07
"Vn_D0:pwr" -0.000000000000000e+00
"Vn_D1:v" 0.000000000000000e+00
"Vn_D1:i" -1.273506158181109e-06
"Vn_D1:pwr" -0.000000000000000e+00
"Vn_GND:v" 0.000000000000000e+00
"Vn_GND:i" -7.687135475931181e-05
"Vn_GND:pwr" -0.000000000000000e+00
"Vn_SD:v" 0.000000000000000e+00
"Vn_SD:i" 1.963879391607374e-04
"Vn_SD:pwr" 0.000000000000000e+00
"Vn_VDD:v" 1.200000000000000e+00
"Vn_VDD:i" -1.081731126440463e-04
"Vn_VDD:pwr" -1.298077351728555e-04
"Vn_Z:v" 0.000000000000000e+00
"Vn_Z:i" -9.382797707133877e-06
"Vn_Z:pwr" -0.000000000000000e+00
"n_Z" -3.771677784190585e-05
"n_D0" 0.000000000000000e+00
"n_D1" 1.200000000000000e+00
"n_SD" 1.197497916666695e+00
"Vn_D0:n" 6.871678921443343e-07
"Vn_D0:p" -6.871678921443343e-07
"Vn_D1:n" 1.273506158181109e-06
"Vn_D1:p" -1.273506158181109e-06
"Vn_GND:n" 7.687135475931181e-05
"Vn_GND:p" -7.687135475931181e-05
"Vn_SD:n" -1.963879391607374e-04
"Vn_SD:p" 1.963879391607374e-04
"Vn_VDD:n" 1.081731126440463e-04
"Vn_VDD:p" -1.081731126440463e-04
"Vn_Z:n" 9.382797707133877e-06
"Vn_Z:p" -9.382797707133877e-06
"time" 3.000062552083333e-09
"Vn_D0:v" 0.000000000000000e+00
"Vn_D0:i" -1.979749046666322e-06
"Vn_D0:pwr" -0.000000000000000e+00
"Vn_D1:v" 0.000000000000000e+00
"Vn_D1:i" -3.417236596452473e-06
"Vn_D1:pwr" -0.000000000000000e+00
"Vn_GND:v" 0.000000000000000e+00
"Vn_GND:i" -7.247169427059965e-05
"Vn_GND:pwr" -0.000000000000000e+00
"Vn_SD:v" 0.000000000000000e+00
"Vn_SD:i" 2.094780303326412e-04
"Vn_SD:pwr" 0.000000000000000e+00
"Vn_VDD:v" 1.200000000000000e+00
"Vn_VDD:i" -1.073770530518359e-04
"Vn_VDD:pwr" -1.288524636622031e-04
"Vn_Z:v" 0.000000000000000e+00
"Vn_Z:i" -2.423229736709016e-05
"Vn_Z:pwr" -0.000000000000000e+00
"n_Z" -1.778963930630444e-04
"n_D0" 0.000000000000000e+00
"n_D1" 1.200000000000000e+00
"n_SD" 1.192493750000085e+00
"Vn_D0:n" 1.979749046666322e-06
"Vn_D0:p" -1.979749046666322e-06
"Vn_D1:n" 3.417236596452473e-06
"Vn_D1:p" -3.417236596452473e-06
"Vn_GND:n" 7.247169427059965e-05
"Vn_GND:p" -7.247169427059965e-05
"Vn_SD:n" -2.094780303326412e-04
"Vn_SD:p" 2.094780303326412e-04
"Vn_VDD:n" 1.073770530518359e-04
"Vn_VDD:p" -1.073770530518359e-04
"Vn_Z:n" 2.423229736709016e-05
"Vn_Z:p" -2.423229736709016e-05
"time" 3.000145954861109e-09
"Vn_D0:v" 0.000000000000000e+00
"Vn_D0:i" -4.033736790976760e-06
"Vn_D0:pwr" -0.000000000000000e+00
"Vn_D1:v" 0.000000000000000e+00
"Vn_D1:i" -5.714669789429074e-06
"Vn_D1:pwr" -0.000000000000000e+00
"Vn_GND:v" 0.000000000000000e+00
"Vn_GND:i" -6.917881230391167e-05
"Vn_GND:pwr" -0.000000000000000e+00
"Vn_SD:v" 0.000000000000000e+00
"Vn_SD:i" 2.228401118188946e-04
"Vn_SD:pwr" 0.000000000000000e+00
"Vn_VDD:v" 1.200000000000000e+00
"Vn_VDD:i" -1.057743455272173e-04
"Vn_VDD:pwr" -1.269292146326608e-04
"Vn_Z:v" 0.000000000000000e+00
"Vn_Z:i" -3.813854740735195e-05
"Vn_Z:pwr" -0.000000000000000e+00
"n_Z" -6.980865637106863e-04
"n_D0" 0.000000000000000e+00
"n_D1" 1.200000000000000e+00
"n_SD" 1.182485416666864e+00
"Vn_D0:n" 4.033736790976760e-06
"Vn_D0:p" -4.033736790976760e-06
"Vn_D1:n" 5.714669789429074e-06
"Vn_D1:p" -5.714669789429074e-06
"Vn_GND:n" 6.917881230391167e-05
"Vn_GND:p" -6.917881230391167e-05
"Vn_SD:n" -2.228401118188946e-04
"Vn_SD:p" 2.228401118188946e-04
"Vn_VDD:n" 1.057743455272173e-04
"Vn_VDD:p" -1.057743455272173e-04
"Vn_Z:n" 3.813854740735195e-05
"Vn_Z:p" -3.813854740735195e-05
"time" 3.000312760416663e-09
"Vn_D0:v" 0.000000000000000e+00
"Vn_D0:i" -6.420229052522573e-06
"Vn_D0:pwr" -0.000000000000000e+00
"Vn_D1:v" 0.000000000000000e+00
"Vn_D1:i" -6.614366351532995e-06
"Vn_D1:pwr" -0.000000000000000e+00
"Vn_GND:v" 0.000000000000000e+00
"Vn_GND:i" -7.008053361381941e-05
"Vn_GND:pwr" -0.000000000000000e+00
"Vn_SD:v" 0.000000000000000e+00
"Vn_SD:i" 2.322058314039971e-04
"Vn_SD:pwr" 0.000000000000000e+00
"Vn_VDD:v" 1.200000000000000e+00
"Vn_VDD:i" -1.053821098343093e-04
"Vn_VDD:pwr" -1.264585318011712e-04
"Vn_Z:v" 0.000000000000000e+00
"Vn_Z:i" -4.370859255181234e-05
"Vn_Z:pwr" -0.000000000000000e+00
"n_Z" -2.063342328847465e-03
"n_D0" 0.000000000000000e+00
"n_D1" 1.200000000000000e+00
"n_SD" 1.162468750000424e+00
"Vn_D0:n" 6.420229052522573e-06
"Vn_D0:p" -6.420229052522573e-06
"Vn_D1:n" 6.614366351532995e-06
"Vn_D1:p" -6.614366351532995e-06
"Vn_GND:n" 7.008053361381941e-05
"Vn_GND:p" -7.008053361381941e-05
"Vn_SD:n" -2.322058314039971e-04
"Vn_SD:p" 2.322058314039971e-04
"Vn_VDD:n" 1.053821098343093e-04
"Vn_VDD:p" -1.053821098343093e-04
"Vn_Z:n" 4.370859255181234e-05
"Vn_Z:p" -4.370859255181234e-05
"time" 3.000565861772966e-09
"Vn_D0:v" 0.000000000000000e+00
"Vn_D0:i" -7.637758672205452e-06
"Vn_D0:pwr" -0.000000000000000e+00
"Vn_D1:v" 0.000000000000000e+00
"Vn_D1:i" -5.552093162787567e-06
"Vn_D1:pwr" -0.000000000000000e+00
"Vn_GND:v" 0.000000000000000e+00
"Vn_GND:i" -7.421268656312490e-05
"Vn_GND:pwr" -0.000000000000000e+00
"Vn_SD:v" 0.000000000000000e+00
"Vn_SD:i" 2.359598855896181e-04
"Vn_SD:pwr" 0.000000000000000e+00
"Vn_VDD:v" 1.200000000000000e+00
"Vn_VDD:i" -1.049874207367927e-04
"Vn_VDD:pwr" -1.259849048841512e-04
"Vn_Z:v" 0.000000000000000e+00
"Vn_Z:i" -4.356992645469928e-05
"Vn_Z:pwr" -0.000000000000000e+00
"n_Z" -4.272373482509091e-03
"n_D0" 0.000000000000000e+00
"n_D1" 1.200000000000000e+00
"n_SD" 1.132096587244132e+00
"Vn_D0:n" 7.637758672205452e-06
"Vn_D0:p" -7.637758672205452e-06
"Vn_D1:n" 5.552093162787567e-06
"Vn_D1:p" -5.552093162787567e-06
"Vn_GND:n" 7.421268656312490e-05
"Vn_GND:p" -7.421268656312490e-05
"Vn_SD:n" -2.359598855896181e-04
"Vn_SD:p" 2.359598855896181e-04
"Vn_VDD:n" 1.049874207367927e-04
"Vn_VDD:p" -1.049874207367927e-04
"Vn_Z:n" 4.356992645469928e-05
"Vn_Z:p" -4.356992645469928e-05
"time" 3.000933643203660e-09
"Vn_D0:v" 0.000000000000000e+00
"Vn_D0:i" -7.675434274166610e-06
"Vn_D0:pwr" -0.000000000000000e+00
"Vn_D1:v" 0.000000000000000e+00
"Vn_D1:i" -4.240480288190721e-06
"Vn_D1:pwr" -0.000000000000000e+00
"Vn_GND:v" 0.000000000000000e+00
"Vn_GND:i" -7.939509568466235e-05
"Vn_GND:pwr" -0.000000000000000e+00
"Vn_SD:v" 0.000000000000000e+00
"Vn_SD:i" 2.382197813021279e-04
"Vn_SD:pwr" 0.000000000000000e+00
"Vn_VDD:v" 1.200000000000000e+00
"Vn_VDD:i" -1.030167467712710e-04
"Vn_VDD:pwr" -1.236200961255252e-04
"Vn_Z:v" 0.000000000000000e+00
