HEADER
"PSFversion" "1.00"
"simulator" "spectre"
"version" "10.1.1.164.isr11"
"date" "3:02:49 PM, Fri Oct 17, 2014"
"design" "* Spectre Timing Acquisition"
"analysis type" "tran"
"analysis name" "transient1-002_transient1"
"analysis description" "Transient Analysis `transient1-002_transient1': time = (0 s -> 39 ns)"
"xVecSorted" "ascending"
"tolerance.relative" 0.00100000
"start" 0.00000
"outputstart" 0.00000
"stop" 3.90000e-08
"step" 3.90000e-11
"maxstep" 7.80000e-10
"ic" "all"
"useprevic" "no"
"skipdc" "no"
"reltol" 0.00100000
"abstol(V)" 1.00000e-06
"abstol(I)" 1.00000e-12
"temp" 25.0000
"tnom" 27.0000
"tempeffects" "all"
"errpreset" "moderate"
"method" "traponly"
"lteratio" 3.50000
"relref" "sigglobal"
"cmin" 0.00000
"gmin" 1.00000e-12
TYPE
"sweep" FLOAT DOUBLE PROP(
"key" "sweep"
)
"Tau" FLOAT DOUBLE PROP(
"units" "N*m"
"key" "node"
"tolerance" 1.00000e-06
)
"Alpha" FLOAT DOUBLE PROP(
"units" "rads/s^2"
"key" "node"
"tolerance" 1.00000e-06
)
"Omega" FLOAT DOUBLE PROP(
"units" "rads/s"
"key" "node"
"tolerance" 1.00000e-06
)
"Theta" FLOAT DOUBLE PROP(
"units" "rads"
"key" "node"
"tolerance" 1.00000e-06
)
"F" FLOAT DOUBLE PROP(
"units" "N"
"key" "node"
"tolerance" 1.00000e-06
)
"Imp" FLOAT DOUBLE PROP(
"units" "m/s^3"
"key" "node"
"tolerance" 1.00000e-06
)
"Acc" FLOAT DOUBLE PROP(
"units" "m/s^2"
"key" "node"
"tolerance" 1.00000e-06
)
"Vel" FLOAT DOUBLE PROP(
"units" "m/s"
"key" "node"
"tolerance" 1.00000e-06
)
"Pos" FLOAT DOUBLE PROP(
"units" "m"
"key" "node"
"tolerance" 1.00000e-06
)
"Phi" FLOAT DOUBLE PROP(
"units" "Wb"
"key" "node"
"tolerance" 1.00000e-09
)
"Q" FLOAT DOUBLE PROP(
"units" "coul"
"key" "node"
"tolerance" 1.00000e-14
)
"V" FLOAT DOUBLE PROP(
"units" "V"
"key" "node"
"tolerance" 1.00000e-06
)
"I" FLOAT DOUBLE PROP(
"units" "A"
"key" "branch"
"tolerance" 1.00000e-12
)
"MMF" FLOAT DOUBLE PROP(
"units" "A*turn"
"key" "node"
"tolerance" 1.00000e-12
)
"Wb" FLOAT DOUBLE PROP(
"units" "Wb"
"key" "node"
"tolerance" 1.00000e-09
)
"Temp" FLOAT DOUBLE PROP(
"units" "C"
"key" "node"
"tolerance" 0.000100000
)
"Pwr" FLOAT DOUBLE PROP(
"units" "W"
"key" "node"
"tolerance" 1.00000e-09
)
"U" FLOAT DOUBLE PROP(
"units" ""
"key" "node"
"tolerance" 1.00000e-06
)
"V/Sec" FLOAT DOUBLE PROP(
"units" "V/s"
"key" "node"
"tolerance" 0.000100000
)
"I/Sec" FLOAT DOUBLE PROP(
"units" "A/s"
"key" "node"
"tolerance" 1.00000e-06
)
"1/Sec" FLOAT DOUBLE PROP(
"units" "1/s"
"key" "node"
"tolerance" 0.000100000
)
"HOD" FLOAT DOUBLE PROP(
"units" ""
"key" "node"
"tolerance" 0.0100000
)
"A" FLOAT DOUBLE PROP(
"key" "inst"
)
"W" FLOAT DOUBLE PROP(
"key" "inst"
)
SWEEP
"time" "sweep" PROP(
"sweep_direction" 0
"units" "s"
"plot" 0
"grid" 1
)
TRACE
"Vn_D0:v" "V" PROP(
"units" "V"
)
"Vn_D0:i" "A" PROP(
"units" "A"
)
"Vn_D0:pwr" "W" PROP(
"units" "W"
)
"Vn_D1:v" "V" PROP(
"units" "V"
)
"Vn_D1:i" "A" PROP(
"units" "A"
)
"Vn_D1:pwr" "W" PROP(
"units" "W"
)
"Vn_GND:v" "V" PROP(
"units" "V"
)
"Vn_GND:i" "A" PROP(
"units" "A"
)
"Vn_GND:pwr" "W" PROP(
"units" "W"
)
"Vn_SD:v" "V" PROP(
"units" "V"
)
"Vn_SD:i" "A" PROP(
"units" "A"
)
"Vn_SD:pwr" "W" PROP(
"units" "W"
)
"Vn_VDD:v" "V" PROP(
"units" "V"
)
"Vn_VDD:i" "A" PROP(
"units" "A"
)
"Vn_VDD:pwr" "W" PROP(
"units" "W"
)
"Vn_Z:v" "V" PROP(
"units" "V"
)
"Vn_Z:i" "A" PROP(
"units" "A"
)
"Vn_Z:pwr" "W" PROP(
"units" "W"
)
"n_Z" "V"
"n_D0" "V"
"n_D1" "V"
"n_SD" "V"
"Vn_D0:n" "I"
"Vn_D0:p" "I"
"Vn_D1:n" "I"
"Vn_D1:p" "I"
"Vn_GND:n" "I"
"Vn_GND:p" "I"
"Vn_SD:n" "I"
"Vn_SD:p" "I"
"Vn_VDD:n" "I"
"Vn_VDD:p" "I"
"Vn_Z:n" "I"
"Vn_Z:p" "I"
VALUE
"time" 0.000000000000000e+00
"Vn_D0:v" 0.000000000000000e+00
"Vn_D0:i" 6.510570961348576e-14
"Vn_D0:pwr" 0.000000000000000e+00
"Vn_D1:v" 0.000000000000000e+00
"Vn_D1:i" -4.653010742690437e-13
"Vn_D1:pwr" -0.000000000000000e+00
"Vn_GND:v" 0.000000000000000e+00
"Vn_GND:i" 6.075187591979709e-10
"Vn_GND:pwr" 0.000000000000000e+00
"Vn_SD:v" 0.000000000000000e+00
"Vn_SD:i" -9.790769334738839e-13
"Vn_SD:pwr" -0.000000000000000e+00
"Vn_VDD:v" 1.200000000000000e+00
"Vn_VDD:i" -6.061394868998708e-10
"Vn_VDD:pwr" -7.273673842798450e-10
"Vn_Z:v" 0.000000000000000e+00
"Vn_Z:i" 0.000000000000000e+00
"Vn_Z:pwr" 0.000000000000000e+00
"n_Z" 1.410791788755138e-06
"n_D0" 0.000000000000000e+00
"n_D1" 1.200000000000000e+00
"n_SD" 1.200000000000000e+00
"Vn_D0:n" -6.510570961348576e-14
"Vn_D0:p" 6.510570961348576e-14
"Vn_D1:n" 4.653010742690437e-13
"Vn_D1:p" -4.653010742690437e-13
"Vn_GND:n" -6.075187591979709e-10
"Vn_GND:p" 6.075187591979709e-10
"Vn_SD:n" 9.790769334738839e-13
"Vn_SD:p" -9.790769334738839e-13
"Vn_VDD:n" 6.061394868998708e-10
"Vn_VDD:p" -6.061394868998708e-10
"Vn_Z:n" 0.000000000000000e+00
"Vn_Z:p" 0.000000000000000e+00
"time" 3.900000000000000e-11
"Vn_D0:v" 0.000000000000000e+00
"Vn_D0:i" 6.510783104397452e-14
"Vn_D0:pwr" 0.000000000000000e+00
"Vn_D1:v" 0.000000000000000e+00
"Vn_D1:i" -4.653011230000871e-13
"Vn_D1:pwr" -0.000000000000000e+00
"Vn_GND:v" 0.000000000000000e+00
"Vn_GND:i" 6.075187602049528e-10
"Vn_GND:pwr" 0.000000000000000e+00
"Vn_SD:v" 0.000000000000000e+00
"Vn_SD:i" -9.790771885652623e-13
"Vn_SD:pwr" -0.000000000000000e+00
"Vn_VDD:v" 1.200000000000000e+00
"Vn_VDD:i" -6.061394875889359e-10
"Vn_VDD:pwr" -7.273673851067230e-10
"Vn_Z:v" 0.000000000000000e+00
"Vn_Z:i" -2.135495805334406e-18
"Vn_Z:pwr" -0.000000000000000e+00
"n_Z" 1.410791772098271e-06
"n_D0" 0.000000000000000e+00
"n_D1" 1.200000000000000e+00
"n_SD" 1.200000000000000e+00
"Vn_D0:n" -6.510783104397452e-14
"Vn_D0:p" 6.510783104397452e-14
"Vn_D1:n" 4.653011230000871e-13
"Vn_D1:p" -4.653011230000871e-13
"Vn_GND:n" -6.075187602049528e-10
"Vn_GND:p" 6.075187602049528e-10
"Vn_SD:n" 9.790771885652623e-13
"Vn_SD:p" -9.790771885652623e-13
"Vn_VDD:n" 6.061394875889359e-10
"Vn_VDD:p" -6.061394875889359e-10
"Vn_Z:n" 2.135495805334406e-18
"Vn_Z:p" -2.135495805334406e-18
"time" 1.170000000000000e-10
"Vn_D0:v" 0.000000000000000e+00
"Vn_D0:i" 6.510783512702253e-14
"Vn_D0:pwr" 0.000000000000000e+00
"Vn_D1:v" 0.000000000000000e+00
"Vn_D1:i" -4.653010879675408e-13
"Vn_D1:pwr" -0.000000000000000e+00
"Vn_GND:v" 0.000000000000000e+00
"Vn_GND:i" 6.075187578761578e-10
"Vn_GND:pwr" 0.000000000000000e+00
"Vn_SD:v" 0.000000000000000e+00
"Vn_SD:i" -9.790770031597283e-13
"Vn_SD:pwr" -0.000000000000000e+00
"Vn_VDD:v" 1.200000000000000e+00
"Vn_VDD:i" -6.061394870961558e-10
"Vn_VDD:pwr" -7.273673845153870e-10
"Vn_Z:v" 0.000000000000000e+00
"Vn_Z:i" -5.354718924944293e-19
"Vn_Z:pwr" -0.000000000000000e+00
"n_Z" 1.410791763744910e-06
"n_D0" 0.000000000000000e+00
"n_D1" 1.200000000000000e+00
"n_SD" 1.200000000000000e+00
"Vn_D0:n" -6.510783512702253e-14
"Vn_D0:p" 6.510783512702253e-14
"Vn_D1:n" 4.653010879675408e-13
"Vn_D1:p" -4.653010879675408e-13
"Vn_GND:n" -6.075187578761578e-10
"Vn_GND:p" 6.075187578761578e-10
"Vn_SD:n" 9.790770031597283e-13
"Vn_SD:p" -9.790770031597283e-13
"Vn_VDD:n" 6.061394870961558e-10
"Vn_VDD:p" -6.061394870961558e-10
"Vn_Z:n" 5.354718924944293e-19
"Vn_Z:p" -5.354718924944293e-19
"time" 2.730000000000000e-10
"Vn_D0:v" 0.000000000000000e+00
"Vn_D0:i" 6.510782927390901e-14
"Vn_D0:pwr" 0.000000000000000e+00
"Vn_D1:v" 0.000000000000000e+00
"Vn_D1:i" -4.653010741340543e-13
"Vn_D1:pwr" -0.000000000000000e+00
"Vn_GND:v" 0.000000000000000e+00
"Vn_GND:i" 6.075187559870255e-10
"Vn_GND:pwr" 0.000000000000000e+00
"Vn_SD:v" 0.000000000000000e+00
"Vn_SD:i" -9.790769004144029e-13
"Vn_SD:pwr" -0.000000000000000e+00
"Vn_VDD:v" 1.200000000000000e+00
"Vn_VDD:i" -6.061394868375799e-10
"Vn_VDD:pwr" -7.273673842050958e-10
"Vn_Z:v" 0.000000000000000e+00
"Vn_Z:i" 1.485191280029744e-19
"Vn_Z:pwr" 0.000000000000000e+00
"n_Z" 1.410791757708446e-06
"n_D0" 0.000000000000000e+00
"n_D1" 1.200000000000000e+00
"n_SD" 1.200000000000000e+00
"Vn_D0:n" -6.510782927390901e-14
"Vn_D0:p" 6.510782927390901e-14
"Vn_D1:n" 4.653010741340543e-13
"Vn_D1:p" -4.653010741340543e-13
"Vn_GND:n" -6.075187559870255e-10
"Vn_GND:p" 6.075187559870255e-10
"Vn_SD:n" 9.790769004144029e-13
"Vn_SD:p" -9.790769004144029e-13
"Vn_VDD:n" 6.061394868375799e-10
"Vn_VDD:p" -6.061394868375799e-10
"Vn_Z:n" -1.485191280029744e-19
"Vn_Z:p" 1.485191280029744e-19
"time" 5.850000000000002e-10
"Vn_D0:v" 0.000000000000000e+00
"Vn_D0:i" 6.510784185225074e-14
"Vn_D0:pwr" 0.000000000000000e+00
"Vn_D1:v" 0.000000000000000e+00
"Vn_D1:i" -4.653011005977280e-13
"Vn_D1:pwr" -0.000000000000000e+00
"Vn_GND:v" 0.000000000000000e+00
"Vn_GND:i" 6.075187580121750e-10
"Vn_GND:pwr" 0.000000000000000e+00
"Vn_SD:v" 0.000000000000000e+00
"Vn_SD:i" -9.790769350876781e-13
"Vn_SD:pwr" -0.000000000000000e+00
"Vn_VDD:v" 1.200000000000000e+00
"Vn_VDD:i" -6.061394871116637e-10
"Vn_VDD:pwr" -7.273673845339964e-10
"Vn_Z:v" 0.000000000000000e+00
"Vn_Z:i" 4.658379518293515e-20
"Vn_Z:pwr" 0.000000000000000e+00
"n_Z" 1.410791763795658e-06
"n_D0" 0.000000000000000e+00
"n_D1" 1.200000000000000e+00
"n_SD" 1.200000000000000e+00
"Vn_D0:n" -6.510784185225074e-14
"Vn_D0:p" 6.510784185225074e-14
"Vn_D1:n" 4.653011005977280e-13
"Vn_D1:p" -4.653011005977280e-13
"Vn_GND:n" -6.075187580121750e-10
"Vn_GND:p" 6.075187580121750e-10
"Vn_SD:n" 9.790769350876781e-13
"Vn_SD:p" -9.790769350876781e-13
"Vn_VDD:n" 6.061394871116637e-10
"Vn_VDD:p" -6.061394871116637e-10
"Vn_Z:n" -4.658379518293515e-20
"Vn_Z:p" 4.658379518293515e-20
"time" 1.209000000000000e-09
"Vn_D0:v" 0.000000000000000e+00
"Vn_D0:i" 6.510782418523916e-14
"Vn_D0:pwr" 0.000000000000000e+00
"Vn_D1:v" 0.000000000000000e+00
"Vn_D1:i" -4.653010500380339e-13
"Vn_D1:pwr" -0.000000000000000e+00
"Vn_GND:v" 0.000000000000000e+00
"Vn_GND:i" 6.075187582711971e-10
"Vn_GND:pwr" 0.000000000000000e+00
"Vn_SD:v" 0.000000000000000e+00
"Vn_SD:i" -9.790769283788401e-13
"Vn_SD:pwr" -0.000000000000000e+00
"Vn_VDD:v" 1.200000000000000e+00
"Vn_VDD:i" -6.061394866846801e-10
"Vn_VDD:pwr" -7.273673840216161e-10
"Vn_Z:v" 0.000000000000000e+00
"Vn_Z:i" -4.030342719258303e-20
"Vn_Z:pwr" -0.000000000000000e+00
"n_Z" 1.410791764187553e-06
"n_D0" 0.000000000000000e+00
"n_D1" 1.200000000000000e+00
"n_SD" 1.200000000000000e+00
"Vn_D0:n" -6.510782418523916e-14
"Vn_D0:p" 6.510782418523916e-14
"Vn_D1:n" 4.653010500380339e-13
"Vn_D1:p" -4.653010500380339e-13
"Vn_GND:n" -6.075187582711971e-10
"Vn_GND:p" 6.075187582711971e-10
"Vn_SD:n" 9.790769283788401e-13
"Vn_SD:p" -9.790769283788401e-13
"Vn_VDD:n" 6.061394866846801e-10
"Vn_VDD:p" -6.061394866846801e-10
"Vn_Z:n" 4.030342719258303e-20
"Vn_Z:p" -4.030342719258303e-20
"time" 1.989000000000000e-09
"Vn_D0:v" 0.000000000000000e+00
"Vn_D0:i" 6.510784198695874e-14
"Vn_D0:pwr" 0.000000000000000e+00
"Vn_D1:v" 0.000000000000000e+00
"Vn_D1:i" -4.653011343571736e-13
"Vn_D1:pwr" -0.000000000000000e+00
"Vn_GND:v" 0.000000000000000e+00
"Vn_GND:i" 6.075187535794012e-10
"Vn_GND:pwr" 0.000000000000000e+00
"Vn_SD:v" 0.000000000000000e+00
"Vn_SD:i" -9.790769581846827e-13
"Vn_SD:pwr" -0.000000000000000e+00
"Vn_VDD:v" 1.200000000000000e+00
"Vn_VDD:i" -6.061394873816162e-10
"Vn_VDD:pwr" -7.273673848579394e-10
"Vn_Z:v" 0.000000000000000e+00
"Vn_Z:i" -1.215076342286240e-19
"Vn_Z:pwr" -0.000000000000000e+00
"n_Z" 1.410791751566290e-06
"n_D0" 0.000000000000000e+00
"n_D1" 1.200000000000000e+00
"n_SD" 1.200000000000000e+00
"Vn_D0:n" -6.510784198695874e-14
"Vn_D0:p" 6.510784198695874e-14
"Vn_D1:n" 4.653011343571736e-13
"Vn_D1:p" -4.653011343571736e-13
"Vn_GND:n" -6.075187535794012e-10
"Vn_GND:p" 6.075187535794012e-10
"Vn_SD:n" 9.790769581846827e-13
"Vn_SD:p" -9.790769581846827e-13
"Vn_VDD:n" 6.061394873816162e-10
"Vn_VDD:p" -6.061394873816162e-10
"Vn_Z:n" 1.215076342286240e-19
"Vn_Z:p" -1.215076342286240e-19
"time" 2.769000000000001e-09
"Vn_D0:v" 0.000000000000000e+00
"Vn_D0:i" 6.510781827819631e-14
"Vn_D0:pwr" 0.000000000000000e+00
"Vn_D1:v" 0.000000000000000e+00
"Vn_D1:i" -4.653010403843638e-13
"Vn_D1:pwr" -0.000000000000000e+00
"Vn_GND:v" 0.000000000000000e+00
"Vn_GND:i" 6.075187602696925e-10
"Vn_GND:pwr" 0.000000000000000e+00
"Vn_SD:v" 0.000000000000000e+00
"Vn_SD:i" -9.790768765817173e-13
"Vn_SD:pwr" -0.000000000000000e+00
"Vn_VDD:v" 1.200000000000000e+00
"Vn_VDD:i" -6.061394865408107e-10
"Vn_VDD:pwr" -7.273673838489729e-10
"Vn_Z:v" 0.000000000000000e+00
"Vn_Z:i" 3.527553661288418e-19
"Vn_Z:pwr" 0.000000000000000e+00
"n_Z" 1.410791769603613e-06
"n_D0" 0.000000000000000e+00
"n_D1" 1.200000000000000e+00
"n_SD" 1.200000000000000e+00
"Vn_D0:n" -6.510781827819631e-14
"Vn_D0:p" 6.510781827819631e-14
"Vn_D1:n" 4.653010403843638e-13
"Vn_D1:p" -4.653010403843638e-13
"Vn_GND:n" -6.075187602696925e-10
"Vn_GND:p" 6.075187602696925e-10
"Vn_SD:n" 9.790768765817173e-13
"Vn_SD:p" -9.790768765817173e-13
"Vn_VDD:n" 6.061394865408107e-10
"Vn_VDD:p" -6.061394865408107e-10
"Vn_Z:n" -3.527553661288418e-19
"Vn_Z:p" 3.527553661288418e-19
"time" 3.000000000000000e-09
"Vn_D0:v" 0.000000000000000e+00
"Vn_D0:i" 6.510784252848375e-14
"Vn_D0:pwr" 0.000000000000000e+00
"Vn_D1:v" 0.000000000000000e+00
"Vn_D1:i" -4.653011240378421e-13
"Vn_D1:pwr" -0.000000000000000e+00
"Vn_GND:v" 0.000000000000000e+00
"Vn_GND:i" 6.075187544776832e-10
"Vn_GND:pwr" 0.000000000000000e+00
"Vn_SD:v" 0.000000000000000e+00
"Vn_SD:i" -9.790770771560392e-13
"Vn_SD:pwr" -0.000000000000000e+00
"Vn_VDD:v" 1.200000000000000e+00
"Vn_VDD:i" -6.061394874756329e-10
"Vn_VDD:pwr" -7.273673849707595e-10
"Vn_Z:v" 0.000000000000000e+00
"Vn_Z:i" -9.949842659656173e-19
"Vn_Z:pwr" -0.000000000000000e+00
"n_Z" 1.410791754768125e-06
"n_D0" 0.000000000000000e+00
"n_D1" 1.200000000000000e+00
"n_SD" 1.200000000000000e+00
"Vn_D0:n" -6.510784252848375e-14
"Vn_D0:p" 6.510784252848375e-14
"Vn_D1:n" 4.653011240378421e-13
"Vn_D1:p" -4.653011240378421e-13
"Vn_GND:n" -6.075187544776832e-10
"Vn_GND:p" 6.075187544776832e-10
"Vn_SD:n" 9.790770771560392e-13
"Vn_SD:p" -9.790770771560392e-13
"Vn_VDD:n" 6.061394874756329e-10
"Vn_VDD:p" -6.061394874756329e-10
"Vn_Z:n" 9.949842659656173e-19
"Vn_Z:p" -9.949842659656173e-19
"time" 3.000020850694444e-09
"Vn_D0:v" 0.000000000000000e+00
"Vn_D0:i" -6.871678921444291e-07
"Vn_D0:pwr" -0.000000000000000e+00
"Vn_D1:v" 0.000000000000000e+00
"Vn_D1:i" -1.273506158214910e-06
"Vn_D1:pwr" -0.000000000000000e+00
"Vn_GND:v" 0.000000000000000e+00
"Vn_GND:i" -7.687135475929992e-05
"Vn_GND:pwr" -0.000000000000000e+00
"Vn_SD:v" 0.000000000000000e+00
"Vn_SD:i" 1.963879391607434e-04
"Vn_SD:pwr" 0.000000000000000e+00
"Vn_VDD:v" 1.200000000000000e+00
"Vn_VDD:i" -1.081731126440279e-04
"Vn_VDD:pwr" -1.298077351728334e-04
"Vn_Z:v" 0.000000000000000e+00
"Vn_Z:i" -9.382797707136563e-06
"Vn_Z:pwr" -0.000000000000000e+00
"n_Z" -3.771677784989842e-05
"n_D0" 0.000000000000000e+00
"n_D1" 1.200000000000000e+00
"n_SD" 1.197497916666695e+00
"Vn_D0:n" 6.871678921444291e-07
"Vn_D0:p" -6.871678921444291e-07
"Vn_D1:n" 1.273506158214910e-06
"Vn_D1:p" -1.273506158214910e-06
"Vn_GND:n" 7.687135475929992e-05
"Vn_GND:p" -7.687135475929992e-05
"Vn_SD:n" -1.963879391607434e-04
"Vn_SD:p" 1.963879391607434e-04
"Vn_VDD:n" 1.081731126440279e-04
"Vn_VDD:p" -1.081731126440279e-04
"Vn_Z:n" 9.382797707136563e-06
"Vn_Z:p" -9.382797707136563e-06
"time" 3.000062552083333e-09
"Vn_D0:v" 0.000000000000000e+00
"Vn_D0:i" -1.979749046662512e-06
"Vn_D0:pwr" -0.000000000000000e+00
"Vn_D1:v" 0.000000000000000e+00
"Vn_D1:i" -3.417236596405558e-06
"Vn_D1:pwr" -0.000000000000000e+00
"Vn_GND:v" 0.000000000000000e+00
"Vn_GND:i" -7.247169427061605e-05
"Vn_GND:pwr" -0.000000000000000e+00
"Vn_SD:v" 0.000000000000000e+00
"Vn_SD:i" 2.094780303326586e-04
"Vn_SD:pwr" 0.000000000000000e+00
"Vn_VDD:v" 1.200000000000000e+00
"Vn_VDD:i" -1.073770530518661e-04
"Vn_VDD:pwr" -1.288524636622394e-04
"Vn_Z:v" 0.000000000000000e+00
"Vn_Z:i" -2.423229736710169e-05
"Vn_Z:pwr" -0.000000000000000e+00
"n_Z" -1.778963930710962e-04
"n_D0" 0.000000000000000e+00
"n_D1" 1.200000000000000e+00
"n_SD" 1.192493750000085e+00
"Vn_D0:n" 1.979749046662512e-06
"Vn_D0:p" -1.979749046662512e-06
"Vn_D1:n" 3.417236596405558e-06
"Vn_D1:p" -3.417236596405558e-06
"Vn_GND:n" 7.247169427061605e-05
"Vn_GND:p" -7.247169427061605e-05
"Vn_SD:n" -2.094780303326586e-04
"Vn_SD:p" 2.094780303326586e-04
"Vn_VDD:n" 1.073770530518661e-04
"Vn_VDD:p" -1.073770530518661e-04
"Vn_Z:n" 2.423229736710169e-05
"Vn_Z:p" -2.423229736710169e-05
"time" 3.000145954861109e-09
"Vn_D0:v" 0.000000000000000e+00
"Vn_D0:i" -4.033736790985371e-06
"Vn_D0:pwr" -0.000000000000000e+00
"Vn_D1:v" 0.000000000000000e+00
"Vn_D1:i" -5.714669789483660e-06
"Vn_D1:pwr" -0.000000000000000e+00
"Vn_GND:v" 0.000000000000000e+00
"Vn_GND:i" -6.917881230390972e-05
"Vn_GND:pwr" -0.000000000000000e+00
"Vn_SD:v" 0.000000000000000e+00
"Vn_SD:i" 2.228401118188762e-04
"Vn_SD:pwr" 0.000000000000000e+00
"Vn_VDD:v" 1.200000000000000e+00
"Vn_VDD:i" -1.057743455271771e-04
"Vn_VDD:pwr" -1.269292146326125e-04
"Vn_Z:v" 0.000000000000000e+00
"Vn_Z:i" -3.813854740736056e-05
"Vn_Z:pwr" -0.000000000000000e+00
"n_Z" -6.980865637189061e-04
"n_D0" 0.000000000000000e+00
"n_D1" 1.200000000000000e+00
"n_SD" 1.182485416666864e+00
"Vn_D0:n" 4.033736790985371e-06
"Vn_D0:p" -4.033736790985371e-06
"Vn_D1:n" 5.714669789483660e-06
"Vn_D1:p" -5.714669789483660e-06
"Vn_GND:n" 6.917881230390972e-05
"Vn_GND:p" -6.917881230390972e-05
"Vn_SD:n" -2.228401118188762e-04
"Vn_SD:p" 2.228401118188762e-04
"Vn_VDD:n" 1.057743455271771e-04
"Vn_VDD:p" -1.057743455271771e-04
"Vn_Z:n" 3.813854740736056e-05
"Vn_Z:p" -3.813854740736056e-05
"time" 3.000312760416663e-09
"Vn_D0:v" 0.000000000000000e+00
"Vn_D0:i" -6.420229052513825e-06
"Vn_D0:pwr" -0.000000000000000e+00
"Vn_D1:v" 0.000000000000000e+00
"Vn_D1:i" -6.614366351483050e-06
"Vn_D1:pwr" -0.000000000000000e+00
"Vn_GND:v" 0.000000000000000e+00
"Vn_GND:i" -7.008053361382543e-05
"Vn_GND:pwr" -0.000000000000000e+00
"Vn_SD:v" 0.000000000000000e+00
"Vn_SD:i" 2.322058314040123e-04
"Vn_SD:pwr" 0.000000000000000e+00
"Vn_VDD:v" 1.200000000000000e+00
"Vn_VDD:i" -1.053821098343407e-04
"Vn_VDD:pwr" -1.264585318012088e-04
"Vn_Z:v" 0.000000000000000e+00
"Vn_Z:i" -4.370859255180973e-05
"Vn_Z:pwr" -0.000000000000000e+00
"n_Z" -2.063342328855785e-03
"n_D0" 0.000000000000000e+00
"n_D1" 1.200000000000000e+00
"n_SD" 1.162468750000424e+00
"Vn_D0:n" 6.420229052513825e-06
"Vn_D0:p" -6.420229052513825e-06
"Vn_D1:n" 6.614366351483050e-06
"Vn_D1:p" -6.614366351483050e-06
"Vn_GND:n" 7.008053361382543e-05
"Vn_GND:p" -7.008053361382543e-05
"Vn_SD:n" -2.322058314040123e-04
"Vn_SD:p" 2.322058314040123e-04
"Vn_VDD:n" 1.053821098343407e-04
"Vn_VDD:p" -1.053821098343407e-04
"Vn_Z:n" 4.370859255180973e-05
"Vn_Z:p" -4.370859255180973e-05
"time" 3.000565861772966e-09
"Vn_D0:v" 0.000000000000000e+00
"Vn_D0:i" -7.637758672213453e-06
"Vn_D0:pwr" -0.000000000000000e+00
"Vn_D1:v" 0.000000000000000e+00
"Vn_D1:i" -5.552093162837013e-06
"Vn_D1:pwr" -0.000000000000000e+00
"Vn_GND:v" 0.000000000000000e+00
"Vn_GND:i" -7.421268656312449e-05
"Vn_GND:pwr" -0.000000000000000e+00
"Vn_SD:v" 0.000000000000000e+00
"Vn_SD:i" 2.359598855895997e-04
"Vn_SD:pwr" 0.000000000000000e+00
"Vn_VDD:v" 1.200000000000000e+00
"Vn_VDD:i" -1.049874207367650e-04
"Vn_VDD:pwr" -1.259849048841179e-04
"Vn_Z:v" 0.000000000000000e+00
"Vn_Z:i" -4.356992645469920e-05
"Vn_Z:pwr" -0.000000000000000e+00
"n_Z" -4.272373482517343e-03
"n_D0" 0.000000000000000e+00
"n_D1" 1.200000000000000e+00
"n_SD" 1.132096587244132e+00
"Vn_D0:n" 7.637758672213453e-06
"Vn_D0:p" -7.637758672213453e-06
"Vn_D1:n" 5.552093162837013e-06
"Vn_D1:p" -5.552093162837013e-06
"Vn_GND:n" 7.421268656312449e-05
"Vn_GND:p" -7.421268656312449e-05
"Vn_SD:n" -2.359598855895997e-04
"Vn_SD:p" 2.359598855895997e-04
"Vn_VDD:n" 1.049874207367650e-04
"Vn_VDD:p" -1.049874207367650e-04
"Vn_Z:n" 4.356992645469920e-05
"Vn_Z:p" -4.356992645469920e-05
"time" 3.000933643203660e-09
"Vn_D0:v" 0.000000000000000e+00
"Vn_D0:i" -7.675434274156920e-06
"Vn_D0:pwr" -0.000000000000000e+00
"Vn_D1:v" 0.000000000000000e+00
"Vn_D1:i" -4.240480288140168e-06
"Vn_D1:pwr" -0.000000000000000e+00
"Vn_GND:v" 0.000000000000000e+00
"Vn_GND:i" -7.939509568466673e-05
"Vn_GND:pwr" -0.000000000000000e+00
"Vn_SD:v" 0.000000000000000e+00
"Vn_SD:i" 2.382197813021441e-04
"Vn_SD:pwr" 0.000000000000000e+00
"Vn_VDD:v" 1.200000000000000e+00
"Vn_VDD:i" -1.030167467712989e-04
"Vn_VDD:pwr" -1.236200961255587e-04
"Vn_Z:v" 0.000000000000000e+00
