HEADER
"PSFversion" "1.00"
"simulator" "spectre"
"version" "10.1.1.164.isr11"
"date" "3:02:49 PM, Fri Oct 17, 2014"
"design" "* Spectre Timing Acquisition"
"analysis type" "tran"
"analysis name" "transient1-011_transient1"
"analysis description" "Transient Analysis `transient1-011_transient1': time = (0 s -> 39 ns)"
"xVecSorted" "ascending"
"tolerance.relative" 0.00100000
"start" 0.00000
"outputstart" 0.00000
"stop" 3.90000e-08
"step" 3.90000e-11
"maxstep" 7.80000e-10
"ic" "all"
"useprevic" "no"
"skipdc" "no"
"reltol" 0.00100000
"abstol(V)" 1.00000e-06
"abstol(I)" 1.00000e-12
"temp" 25.0000
"tnom" 27.0000
"tempeffects" "all"
"errpreset" "moderate"
"method" "traponly"
"lteratio" 3.50000
"relref" "sigglobal"
"cmin" 0.00000
"gmin" 1.00000e-12
TYPE
"sweep" FLOAT DOUBLE PROP(
"key" "sweep"
)
"Tau" FLOAT DOUBLE PROP(
"units" "N*m"
"key" "node"
"tolerance" 1.00000e-06
)
"Alpha" FLOAT DOUBLE PROP(
"units" "rads/s^2"
"key" "node"
"tolerance" 1.00000e-06
)
"Omega" FLOAT DOUBLE PROP(
"units" "rads/s"
"key" "node"
"tolerance" 1.00000e-06
)
"Theta" FLOAT DOUBLE PROP(
"units" "rads"
"key" "node"
"tolerance" 1.00000e-06
)
"F" FLOAT DOUBLE PROP(
"units" "N"
"key" "node"
"tolerance" 1.00000e-06
)
"Imp" FLOAT DOUBLE PROP(
"units" "m/s^3"
"key" "node"
"tolerance" 1.00000e-06
)
"Acc" FLOAT DOUBLE PROP(
"units" "m/s^2"
"key" "node"
"tolerance" 1.00000e-06
)
"Vel" FLOAT DOUBLE PROP(
"units" "m/s"
"key" "node"
"tolerance" 1.00000e-06
)
"Pos" FLOAT DOUBLE PROP(
"units" "m"
"key" "node"
"tolerance" 1.00000e-06
)
"Phi" FLOAT DOUBLE PROP(
"units" "Wb"
"key" "node"
"tolerance" 1.00000e-09
)
"Q" FLOAT DOUBLE PROP(
"units" "coul"
"key" "node"
"tolerance" 1.00000e-14
)
"V" FLOAT DOUBLE PROP(
"units" "V"
"key" "node"
"tolerance" 1.00000e-06
)
"I" FLOAT DOUBLE PROP(
"units" "A"
"key" "branch"
"tolerance" 1.00000e-12
)
"MMF" FLOAT DOUBLE PROP(
"units" "A*turn"
"key" "node"
"tolerance" 1.00000e-12
)
"Wb" FLOAT DOUBLE PROP(
"units" "Wb"
"key" "node"
"tolerance" 1.00000e-09
)
"Temp" FLOAT DOUBLE PROP(
"units" "C"
"key" "node"
"tolerance" 0.000100000
)
"Pwr" FLOAT DOUBLE PROP(
"units" "W"
"key" "node"
"tolerance" 1.00000e-09
)
"U" FLOAT DOUBLE PROP(
"units" ""
"key" "node"
"tolerance" 1.00000e-06
)
"V/Sec" FLOAT DOUBLE PROP(
"units" "V/s"
"key" "node"
"tolerance" 0.000100000
)
"I/Sec" FLOAT DOUBLE PROP(
"units" "A/s"
"key" "node"
"tolerance" 1.00000e-06
)
"1/Sec" FLOAT DOUBLE PROP(
"units" "1/s"
"key" "node"
"tolerance" 0.000100000
)
"HOD" FLOAT DOUBLE PROP(
"units" ""
"key" "node"
"tolerance" 0.0100000
)
"A" FLOAT DOUBLE PROP(
"key" "inst"
)
"W" FLOAT DOUBLE PROP(
"key" "inst"
)
SWEEP
"time" "sweep" PROP(
"sweep_direction" 0
"units" "s"
"plot" 0
"grid" 1
)
TRACE
"Vn_D0:v" "V" PROP(
"units" "V"
)
"Vn_D0:i" "A" PROP(
"units" "A"
)
"Vn_D0:pwr" "W" PROP(
"units" "W"
)
"Vn_D1:v" "V" PROP(
"units" "V"
)
"Vn_D1:i" "A" PROP(
"units" "A"
)
"Vn_D1:pwr" "W" PROP(
"units" "W"
)
"Vn_GND:v" "V" PROP(
"units" "V"
)
"Vn_GND:i" "A" PROP(
"units" "A"
)
"Vn_GND:pwr" "W" PROP(
"units" "W"
)
"Vn_SD:v" "V" PROP(
"units" "V"
)
"Vn_SD:i" "A" PROP(
"units" "A"
)
"Vn_SD:pwr" "W" PROP(
"units" "W"
)
"Vn_VDD:v" "V" PROP(
"units" "V"
)
"Vn_VDD:i" "A" PROP(
"units" "A"
)
"Vn_VDD:pwr" "W" PROP(
"units" "W"
)
"Vn_Z:v" "V" PROP(
"units" "V"
)
"Vn_Z:i" "A" PROP(
"units" "A"
)
"Vn_Z:pwr" "W" PROP(
"units" "W"
)
"n_Z" "V"
"n_D0" "V"
"n_D1" "V"
"n_SD" "V"
"Vn_D0:n" "I"
"Vn_D0:p" "I"
"Vn_D1:n" "I"
"Vn_D1:p" "I"
"Vn_GND:n" "I"
"Vn_GND:p" "I"
"Vn_SD:n" "I"
"Vn_SD:p" "I"
"Vn_VDD:n" "I"
"Vn_VDD:p" "I"
"Vn_Z:n" "I"
"Vn_Z:p" "I"
VALUE
"time" 0.000000000000000e+00
"Vn_D0:v" 0.000000000000000e+00
"Vn_D0:i" 6.510570961348576e-14
"Vn_D0:pwr" 0.000000000000000e+00
"Vn_D1:v" 0.000000000000000e+00
"Vn_D1:i" -4.653010742690437e-13
"Vn_D1:pwr" -0.000000000000000e+00
"Vn_GND:v" 0.000000000000000e+00
"Vn_GND:i" 6.075187591979709e-10
"Vn_GND:pwr" 0.000000000000000e+00
"Vn_SD:v" 0.000000000000000e+00
"Vn_SD:i" -9.790769334738839e-13
"Vn_SD:pwr" -0.000000000000000e+00
"Vn_VDD:v" 1.200000000000000e+00
"Vn_VDD:i" -6.061394868998708e-10
"Vn_VDD:pwr" -7.273673842798450e-10
"Vn_Z:v" 0.000000000000000e+00
"Vn_Z:i" 0.000000000000000e+00
"Vn_Z:pwr" 0.000000000000000e+00
"n_Z" 1.410791788733987e-06
"n_D0" 0.000000000000000e+00
"n_D1" 1.200000000000000e+00
"n_SD" 1.200000000000000e+00
"Vn_D0:n" -6.510570961348576e-14
"Vn_D0:p" 6.510570961348576e-14
"Vn_D1:n" 4.653010742690437e-13
"Vn_D1:p" -4.653010742690437e-13
"Vn_GND:n" -6.075187591979709e-10
"Vn_GND:p" 6.075187591979709e-10
"Vn_SD:n" 9.790769334738839e-13
"Vn_SD:p" -9.790769334738839e-13
"Vn_VDD:n" 6.061394868998708e-10
"Vn_VDD:p" -6.061394868998708e-10
"Vn_Z:n" 0.000000000000000e+00
"Vn_Z:p" 0.000000000000000e+00
"time" 3.900000000000000e-11
"Vn_D0:v" 0.000000000000000e+00
"Vn_D0:i" 6.510783104403166e-14
"Vn_D0:pwr" 0.000000000000000e+00
"Vn_D1:v" 0.000000000000000e+00
"Vn_D1:i" -4.653011232944836e-13
"Vn_D1:pwr" -0.000000000000000e+00
"Vn_GND:v" 0.000000000000000e+00
"Vn_GND:i" 6.075187602056390e-10
"Vn_GND:pwr" 0.000000000000000e+00
"Vn_SD:v" 0.000000000000000e+00
"Vn_SD:i" -9.790771885389119e-13
"Vn_SD:pwr" -0.000000000000000e+00
"Vn_VDD:v" 1.200000000000000e+00
"Vn_VDD:i" -6.061394875895436e-10
"Vn_VDD:pwr" -7.273673851074523e-10
"Vn_Z:v" 0.000000000000000e+00
"Vn_Z:i" -2.135306288353904e-18
"Vn_Z:pwr" -0.000000000000000e+00
"n_Z" 1.410791772078598e-06
"n_D0" 0.000000000000000e+00
"n_D1" 1.200000000000000e+00
"n_SD" 1.200000000000000e+00
"Vn_D0:n" -6.510783104403166e-14
"Vn_D0:p" 6.510783104403166e-14
"Vn_D1:n" 4.653011232944836e-13
"Vn_D1:p" -4.653011232944836e-13
"Vn_GND:n" -6.075187602056390e-10
"Vn_GND:p" 6.075187602056390e-10
"Vn_SD:n" 9.790771885389119e-13
"Vn_SD:p" -9.790771885389119e-13
"Vn_VDD:n" 6.061394875895436e-10
"Vn_VDD:p" -6.061394875895436e-10
"Vn_Z:n" 2.135306288353904e-18
"Vn_Z:p" -2.135306288353904e-18
"time" 1.170000000000000e-10
"Vn_D0:v" 0.000000000000000e+00
"Vn_D0:i" 6.510783512138677e-14
"Vn_D0:pwr" 0.000000000000000e+00
"Vn_D1:v" 0.000000000000000e+00
"Vn_D1:i" -4.653010903395400e-13
"Vn_D1:pwr" -0.000000000000000e+00
"Vn_GND:v" 0.000000000000000e+00
"Vn_GND:i" 6.075187578740181e-10
"Vn_GND:pwr" 0.000000000000000e+00
"Vn_SD:v" 0.000000000000000e+00
"Vn_SD:i" -9.790770035260084e-13
"Vn_SD:pwr" -0.000000000000000e+00
"Vn_VDD:v" 1.200000000000000e+00
"Vn_VDD:i" -6.061394870855747e-10
"Vn_VDD:pwr" -7.273673845026897e-10
"Vn_Z:v" 0.000000000000000e+00
"Vn_Z:i" -5.352899067674301e-19
"Vn_Z:pwr" -0.000000000000000e+00
"n_Z" 1.410791763728075e-06
"n_D0" 0.000000000000000e+00
"n_D1" 1.200000000000000e+00
"n_SD" 1.200000000000000e+00
"Vn_D0:n" -6.510783512138677e-14
"Vn_D0:p" 6.510783512138677e-14
"Vn_D1:n" 4.653010903395400e-13
"Vn_D1:p" -4.653010903395400e-13
"Vn_GND:n" -6.075187578740181e-10
"Vn_GND:p" 6.075187578740181e-10
"Vn_SD:n" 9.790770035260084e-13
"Vn_SD:p" -9.790770035260084e-13
"Vn_VDD:n" 6.061394870855747e-10
"Vn_VDD:p" -6.061394870855747e-10
"Vn_Z:n" 5.352899067674301e-19
"Vn_Z:p" -5.352899067674301e-19
"time" 2.730000000000000e-10
"Vn_D0:v" 0.000000000000000e+00
"Vn_D0:i" 6.510782934958245e-14
"Vn_D0:pwr" 0.000000000000000e+00
"Vn_D1:v" 0.000000000000000e+00
"Vn_D1:i" -4.653008215655816e-13
"Vn_D1:pwr" -0.000000000000000e+00
"Vn_GND:v" 0.000000000000000e+00
"Vn_GND:i" 6.075187560836896e-10
"Vn_GND:pwr" 0.000000000000000e+00
"Vn_SD:v" 0.000000000000000e+00
"Vn_SD:i" -9.790769049496544e-13
"Vn_SD:pwr" -0.000000000000000e+00
"Vn_VDD:v" 1.200000000000000e+00
"Vn_VDD:i" -6.061394852153933e-10
"Vn_VDD:pwr" -7.273673822584720e-10
"Vn_Z:v" 0.000000000000000e+00
"Vn_Z:i" 1.107213632416175e-19
"Vn_Z:pwr" 0.000000000000000e+00
"n_Z" 1.410791757104806e-06
"n_D0" 0.000000000000000e+00
"n_D1" 1.200000000000000e+00
"n_SD" 1.200000000000000e+00
"Vn_D0:n" -6.510782934958245e-14
"Vn_D0:p" 6.510782934958245e-14
"Vn_D1:n" 4.653008215655816e-13
"Vn_D1:p" -4.653008215655816e-13
"Vn_GND:n" -6.075187560836896e-10
"Vn_GND:p" 6.075187560836896e-10
"Vn_SD:n" 9.790769049496544e-13
"Vn_SD:p" -9.790769049496544e-13
"Vn_VDD:n" 6.061394852153933e-10
"Vn_VDD:p" -6.061394852153933e-10
"Vn_Z:n" -1.107213632416175e-19
"Vn_Z:p" 1.107213632416175e-19
"time" 5.850000000000002e-10
"Vn_D0:v" 0.000000000000000e+00
"Vn_D0:i" 6.510784166312861e-14
"Vn_D0:pwr" 0.000000000000000e+00
"Vn_D1:v" 0.000000000000000e+00
"Vn_D1:i" -4.653013519809624e-13
"Vn_D1:pwr" -0.000000000000000e+00
"Vn_GND:v" 0.000000000000000e+00
"Vn_GND:i" 6.075187578860680e-10
"Vn_GND:pwr" 0.000000000000000e+00
"Vn_SD:v" 0.000000000000000e+00
"Vn_SD:i" -9.790769285849212e-13
"Vn_SD:pwr" -0.000000000000000e+00
"Vn_VDD:v" 1.200000000000000e+00
"Vn_VDD:i" -6.061394887039203e-10
"Vn_VDD:pwr" -7.273673864447043e-10
"Vn_Z:v" 0.000000000000000e+00
"Vn_Z:i" 1.189077638759962e-19
"Vn_Z:pwr" 0.000000000000000e+00
"n_Z" 1.410791764269235e-06
"n_D0" 0.000000000000000e+00
"n_D1" 1.200000000000000e+00
"n_SD" 1.200000000000000e+00
"Vn_D0:n" -6.510784166312861e-14
"Vn_D0:p" 6.510784166312861e-14
"Vn_D1:n" 4.653013519809624e-13
"Vn_D1:p" -4.653013519809624e-13
"Vn_GND:n" -6.075187578860680e-10
"Vn_GND:p" 6.075187578860680e-10
"Vn_SD:n" 9.790769285849212e-13
"Vn_SD:p" -9.790769285849212e-13
"Vn_VDD:n" 6.061394887039203e-10
"Vn_VDD:p" -6.061394887039203e-10
"Vn_Z:n" -1.189077638759962e-19
"Vn_Z:p" 1.189077638759962e-19
"time" 1.209000000000000e-09
"Vn_D0:v" 0.000000000000000e+00
"Vn_D0:i" 6.510782441915600e-14
"Vn_D0:pwr" 0.000000000000000e+00
"Vn_D1:v" 0.000000000000000e+00
"Vn_D1:i" -4.653006771135167e-13
"Vn_D1:pwr" -0.000000000000000e+00
"Vn_GND:v" 0.000000000000000e+00
"Vn_GND:i" 6.075187564780794e-10
"Vn_GND:pwr" 0.000000000000000e+00
"Vn_SD:v" 0.000000000000000e+00
"Vn_SD:i" -9.790769499740351e-13
"Vn_SD:pwr" -0.000000000000000e+00
"Vn_VDD:v" 1.200000000000000e+00
"Vn_VDD:i" -6.061394843070120e-10
"Vn_VDD:pwr" -7.273673811684144e-10
"Vn_Z:v" 0.000000000000000e+00
"Vn_Z:i" -2.198227293319015e-19
"Vn_Z:pwr" -0.000000000000000e+00
"n_Z" 1.410791757972141e-06
"n_D0" 0.000000000000000e+00
"n_D1" 1.200000000000000e+00
"n_SD" 1.200000000000000e+00
"Vn_D0:n" -6.510782441915600e-14
"Vn_D0:p" 6.510782441915600e-14
"Vn_D1:n" 4.653006771135167e-13
"Vn_D1:p" -4.653006771135167e-13
"Vn_GND:n" -6.075187564780794e-10
"Vn_GND:p" 6.075187564780794e-10
"Vn_SD:n" 9.790769499740351e-13
"Vn_SD:p" -9.790769499740351e-13
"Vn_VDD:n" 6.061394843070120e-10
"Vn_VDD:p" -6.061394843070120e-10
"Vn_Z:n" 2.198227293319015e-19
"Vn_Z:p" -2.198227293319015e-19
"time" 1.989000000000000e-09
"Vn_D0:v" 0.000000000000000e+00
"Vn_D0:i" 6.510784103188023e-14
"Vn_D0:pwr" 0.000000000000000e+00
"Vn_D1:v" 0.000000000000000e+00
"Vn_D1:i" -4.653014381381308e-13
"Vn_D1:pwr" -0.000000000000000e+00
"Vn_GND:v" 0.000000000000000e+00
"Vn_GND:i" 6.075187597778236e-10
"Vn_GND:pwr" 0.000000000000000e+00
"Vn_SD:v" 0.000000000000000e+00
"Vn_SD:i" -9.790768956733976e-13
"Vn_SD:pwr" -0.000000000000000e+00
"Vn_VDD:v" 1.200000000000000e+00
"Vn_VDD:i" -6.061394892388716e-10
"Vn_VDD:pwr" -7.273673870866459e-10
"Vn_Z:v" 0.000000000000000e+00
"Vn_Z:i" 3.718279971032675e-19
"Vn_Z:pwr" 0.000000000000000e+00
"n_Z" 1.410791769828551e-06
"n_D0" 0.000000000000000e+00
"n_D1" 1.200000000000000e+00
"n_SD" 1.200000000000000e+00
"Vn_D0:n" -6.510784103188023e-14
"Vn_D0:p" 6.510784103188023e-14
"Vn_D1:n" 4.653014381381308e-13
"Vn_D1:p" -4.653014381381308e-13
"Vn_GND:n" -6.075187597778236e-10
"Vn_GND:p" 6.075187597778236e-10
"Vn_SD:n" 9.790768956733976e-13
"Vn_SD:p" -9.790768956733976e-13
"Vn_VDD:n" 6.061394892388716e-10
"Vn_VDD:p" -6.061394892388716e-10
"Vn_Z:n" -3.718279971032675e-19
"Vn_Z:p" 3.718279971032675e-19
"time" 2.769000000000001e-09
"Vn_D0:v" 0.000000000000000e+00
"Vn_D0:i" 6.510781915431058e-14
"Vn_D0:pwr" 0.000000000000000e+00
"Vn_D1:v" 0.000000000000000e+00
"Vn_D1:i" -4.653007790685441e-13
"Vn_D1:pwr" -0.000000000000000e+00
"Vn_GND:v" 0.000000000000000e+00
"Vn_GND:i" 6.075187545579642e-10
"Vn_GND:pwr" 0.000000000000000e+00
"Vn_SD:v" 0.000000000000000e+00
"Vn_SD:i" -9.790769979772899e-13
"Vn_SD:pwr" -0.000000000000000e+00
"Vn_VDD:v" 1.200000000000000e+00
"Vn_VDD:i" -6.061394850536551e-10
"Vn_VDD:pwr" -7.273673820643861e-10
"Vn_Z:v" 0.000000000000000e+00
"Vn_Z:i" -5.849360299937281e-19
"Vn_Z:pwr" -0.000000000000000e+00
"n_Z" 1.410791753206125e-06
"n_D0" 0.000000000000000e+00
"n_D1" 1.200000000000000e+00
"n_SD" 1.200000000000000e+00
"Vn_D0:n" -6.510781915431058e-14
"Vn_D0:p" 6.510781915431058e-14
"Vn_D1:n" 4.653007790685441e-13
"Vn_D1:p" -4.653007790685441e-13
"Vn_GND:n" -6.075187545579642e-10
"Vn_GND:p" 6.075187545579642e-10
"Vn_SD:n" 9.790769979772899e-13
"Vn_SD:p" -9.790769979772899e-13
"Vn_VDD:n" 6.061394850536551e-10
"Vn_VDD:p" -6.061394850536551e-10
"Vn_Z:n" 5.849360299937281e-19
"Vn_Z:p" -5.849360299937281e-19
"time" 3.000000000000000e-09
"Vn_D0:v" 0.000000000000000e+00
"Vn_D0:i" 6.510784246835445e-14
"Vn_D0:pwr" 0.000000000000000e+00
"Vn_D1:v" 0.000000000000000e+00
"Vn_D1:i" -4.653014869792915e-13
"Vn_D1:pwr" -0.000000000000000e+00
"Vn_GND:v" 0.000000000000000e+00
"Vn_GND:i" 6.075187587037886e-10
"Vn_GND:pwr" 0.000000000000000e+00
"Vn_SD:v" 0.000000000000000e+00
"Vn_SD:i" -9.790767919718982e-13
"Vn_SD:pwr" -0.000000000000000e+00
"Vn_VDD:v" 1.200000000000000e+00
"Vn_VDD:i" -6.061394893737334e-10
"Vn_VDD:pwr" -7.273673872484801e-10
"Vn_Z:v" 0.000000000000000e+00
"Vn_Z:i" 1.149892134916560e-18
"Vn_Z:pwr" 0.000000000000000e+00
"n_Z" 1.410791766256611e-06
"n_D0" 0.000000000000000e+00
"n_D1" 1.200000000000000e+00
"n_SD" 1.200000000000000e+00
"Vn_D0:n" -6.510784246835445e-14
"Vn_D0:p" 6.510784246835445e-14
"Vn_D1:n" 4.653014869792915e-13
"Vn_D1:p" -4.653014869792915e-13
"Vn_GND:n" -6.075187587037886e-10
"Vn_GND:p" 6.075187587037886e-10
"Vn_SD:n" 9.790767919718982e-13
"Vn_SD:p" -9.790767919718982e-13
"Vn_VDD:n" 6.061394893737334e-10
"Vn_VDD:p" -6.061394893737334e-10
"Vn_Z:n" -1.149892134916560e-18
"Vn_Z:p" 1.149892134916560e-18
"time" 3.000020850694444e-09
"Vn_D0:v" 0.000000000000000e+00
"Vn_D0:i" -6.871678921431892e-07
"Vn_D0:pwr" -0.000000000000000e+00
"Vn_D1:v" 0.000000000000000e+00
"Vn_D1:i" -1.273506158168155e-06
"Vn_D1:pwr" -0.000000000000000e+00
"Vn_GND:v" 0.000000000000000e+00
"Vn_GND:i" -7.687135475933351e-05
"Vn_GND:pwr" -0.000000000000000e+00
"Vn_SD:v" 0.000000000000000e+00
"Vn_SD:i" 1.963879391607583e-04
"Vn_SD:pwr" 0.000000000000000e+00
"Vn_VDD:v" 1.200000000000000e+00
"Vn_VDD:i" -1.081731126439239e-04
"Vn_VDD:pwr" -1.298077351727087e-04
"Vn_Z:v" 0.000000000000000e+00
"Vn_Z:i" -9.382797707136333e-06
"Vn_Z:pwr" -0.000000000000000e+00
"n_Z" -3.771677783840897e-05
"n_D0" 0.000000000000000e+00
"n_D1" 1.200000000000000e+00
"n_SD" 1.197497916666695e+00
"Vn_D0:n" 6.871678921431892e-07
"Vn_D0:p" -6.871678921431892e-07
"Vn_D1:n" 1.273506158168155e-06
"Vn_D1:p" -1.273506158168155e-06
"Vn_GND:n" 7.687135475933351e-05
"Vn_GND:p" -7.687135475933351e-05
"Vn_SD:n" -1.963879391607583e-04
"Vn_SD:p" 1.963879391607583e-04
"Vn_VDD:n" 1.081731126439239e-04
"Vn_VDD:p" -1.081731126439239e-04
"Vn_Z:n" 9.382797707136333e-06
"Vn_Z:p" -9.382797707136333e-06
"time" 3.000062552083333e-09
"Vn_D0:v" 0.000000000000000e+00
"Vn_D0:i" -1.979749046666125e-06
"Vn_D0:pwr" -0.000000000000000e+00
"Vn_D1:v" 0.000000000000000e+00
"Vn_D1:i" -3.417236596449821e-06
"Vn_D1:pwr" -0.000000000000000e+00
"Vn_GND:v" 0.000000000000000e+00
"Vn_GND:i" -7.247169427056330e-05
"Vn_GND:pwr" -0.000000000000000e+00
"Vn_SD:v" 0.000000000000000e+00
"Vn_SD:i" 2.094780303326187e-04
"Vn_SD:pwr" 0.000000000000000e+00
"Vn_VDD:v" 1.200000000000000e+00
"Vn_VDD:i" -1.073770530518429e-04
"Vn_VDD:pwr" -1.288524636622115e-04
"Vn_Z:v" 0.000000000000000e+00
"Vn_Z:i" -2.423229736709775e-05
"Vn_Z:pwr" -0.000000000000000e+00
"n_Z" -1.778963930595894e-04
"n_D0" 0.000000000000000e+00
"n_D1" 1.200000000000000e+00
"n_SD" 1.192493750000085e+00
"Vn_D0:n" 1.979749046666125e-06
"Vn_D0:p" -1.979749046666125e-06
"Vn_D1:n" 3.417236596449821e-06
"Vn_D1:p" -3.417236596449821e-06
"Vn_GND:n" 7.247169427056330e-05
"Vn_GND:p" -7.247169427056330e-05
"Vn_SD:n" -2.094780303326187e-04
"Vn_SD:p" 2.094780303326187e-04
"Vn_VDD:n" 1.073770530518429e-04
"Vn_VDD:p" -1.073770530518429e-04
"Vn_Z:n" 2.423229736709775e-05
"Vn_Z:p" -2.423229736709775e-05
"time" 3.000145954861109e-09
"Vn_D0:v" 0.000000000000000e+00
"Vn_D0:i" -4.033736790976993e-06
"Vn_D0:pwr" -0.000000000000000e+00
"Vn_D1:v" 0.000000000000000e+00
"Vn_D1:i" -5.714669789434182e-06
"Vn_D1:pwr" -0.000000000000000e+00
"Vn_GND:v" 0.000000000000000e+00
"Vn_GND:i" -6.917881230393671e-05
"Vn_GND:pwr" -0.000000000000000e+00
"Vn_SD:v" 0.000000000000000e+00
"Vn_SD:i" 2.228401118189120e-04
"Vn_SD:pwr" 0.000000000000000e+00
"Vn_VDD:v" 1.200000000000000e+00
"Vn_VDD:i" -1.057743455271811e-04
"Vn_VDD:pwr" -1.269292146326173e-04
"Vn_Z:v" 0.000000000000000e+00
"Vn_Z:i" -3.813854740735557e-05
"Vn_Z:pwr" -0.000000000000000e+00
"n_Z" -6.980865637073250e-04
"n_D0" 0.000000000000000e+00
"n_D1" 1.200000000000000e+00
"n_SD" 1.182485416666864e+00
"Vn_D0:n" 4.033736790976993e-06
"Vn_D0:p" -4.033736790976993e-06
"Vn_D1:n" 5.714669789434182e-06
"Vn_D1:p" -5.714669789434182e-06
"Vn_GND:n" 6.917881230393671e-05
"Vn_GND:p" -6.917881230393671e-05
"Vn_SD:n" -2.228401118189120e-04
"Vn_SD:p" 2.228401118189120e-04
"Vn_VDD:n" 1.057743455271811e-04
"Vn_VDD:p" -1.057743455271811e-04
"Vn_Z:n" 3.813854740735557e-05
"Vn_Z:p" -3.813854740735557e-05
"time" 3.000312760416663e-09
"Vn_D0:v" 0.000000000000000e+00
"Vn_D0:i" -6.420229052519740e-06
"Vn_D0:pwr" -0.000000000000000e+00
"Vn_D1:v" 0.000000000000000e+00
"Vn_D1:i" -6.614366351527851e-06
"Vn_D1:pwr" -0.000000000000000e+00
"Vn_GND:v" 0.000000000000000e+00
"Vn_GND:i" -7.008053361379320e-05
"Vn_GND:pwr" -0.000000000000000e+00
"Vn_SD:v" 0.000000000000000e+00
"Vn_SD:i" 2.322058314039821e-04
"Vn_SD:pwr" 0.000000000000000e+00
"Vn_VDD:v" 1.200000000000000e+00
"Vn_VDD:i" -1.053821098343447e-04
"Vn_VDD:pwr" -1.264585318012137e-04
"Vn_Z:v" 0.000000000000000e+00
"Vn_Z:i" -4.370859255181146e-05
"Vn_Z:pwr" -0.000000000000000e+00
"n_Z" -2.063342328844150e-03
"n_D0" 0.000000000000000e+00
"n_D1" 1.200000000000000e+00
"n_SD" 1.162468750000424e+00
"Vn_D0:n" 6.420229052519740e-06
"Vn_D0:p" -6.420229052519740e-06
"Vn_D1:n" 6.614366351527851e-06
"Vn_D1:p" -6.614366351527851e-06
"Vn_GND:n" 7.008053361379320e-05
"Vn_GND:p" -7.008053361379320e-05
"Vn_SD:n" -2.322058314039821e-04
"Vn_SD:p" 2.322058314039821e-04
"Vn_VDD:n" 1.053821098343447e-04
"Vn_VDD:p" -1.053821098343447e-04
"Vn_Z:n" 4.370859255181146e-05
"Vn_Z:p" -4.370859255181146e-05
"time" 3.000565861772966e-09
"Vn_D0:v" 0.000000000000000e+00
"Vn_D0:i" -7.637758672208584e-06
"Vn_D0:pwr" -0.000000000000000e+00
"Vn_D1:v" 0.000000000000000e+00
"Vn_D1:i" -5.552093162789756e-06
"Vn_D1:pwr" -0.000000000000000e+00
"Vn_GND:v" 0.000000000000000e+00
"Vn_GND:i" -7.421268656314959e-05
"Vn_GND:pwr" -0.000000000000000e+00
"Vn_SD:v" 0.000000000000000e+00
"Vn_SD:i" 2.359598855896314e-04
"Vn_SD:pwr" 0.000000000000000e+00
"Vn_VDD:v" 1.200000000000000e+00
"Vn_VDD:i" -1.049874207367650e-04
"Vn_VDD:pwr" -1.259849048841180e-04
"Vn_Z:v" 0.000000000000000e+00
"Vn_Z:i" -4.356992645470020e-05
"Vn_Z:pwr" -0.000000000000000e+00
"n_Z" -4.272373482505778e-03
"n_D0" 0.000000000000000e+00
"n_D1" 1.200000000000000e+00
"n_SD" 1.132096587244132e+00
"Vn_D0:n" 7.637758672208584e-06
"Vn_D0:p" -7.637758672208584e-06
"Vn_D1:n" 5.552093162789756e-06
"Vn_D1:p" -5.552093162789756e-06
"Vn_GND:n" 7.421268656314959e-05
"Vn_GND:p" -7.421268656314959e-05
"Vn_SD:n" -2.359598855896314e-04
"Vn_SD:p" 2.359598855896314e-04
"Vn_VDD:n" 1.049874207367650e-04
"Vn_VDD:p" -1.049874207367650e-04
"Vn_Z:n" 4.356992645470020e-05
"Vn_Z:p" -4.356992645470020e-05
"time" 3.000933643203660e-09
"Vn_D0:v" 0.000000000000000e+00
"Vn_D0:i" -7.675434274162689e-06
"Vn_D0:pwr" -0.000000000000000e+00
"Vn_D1:v" 0.000000000000000e+00
"Vn_D1:i" -4.240480288188765e-06
"Vn_D1:pwr" -0.000000000000000e+00
"Vn_GND:v" 0.000000000000000e+00
"Vn_GND:i" -7.939509568463266e-05
"Vn_GND:pwr" -0.000000000000000e+00
"Vn_SD:v" 0.000000000000000e+00
"Vn_SD:i" 2.382197813021110e-04
"Vn_SD:pwr" 0.000000000000000e+00
"Vn_VDD:v" 1.200000000000000e+00
"Vn_VDD:i" -1.030167467712948e-04
"Vn_VDD:pwr" -1.236200961255538e-04
"Vn_Z:v" 0.000000000000000e+00
