HEADER
"PSFversion" "1.00"
"simulator" "spectre"
"version" "10.1.1.164.isr11"
"date" "3:02:49 PM, Fri Oct 17, 2014"
"design" "* Spectre Timing Acquisition"
"analysis type" "tran"
"analysis name" "transient1-005_transient1"
"analysis description" "Transient Analysis `transient1-005_transient1': time = (0 s -> 39 ns)"
"xVecSorted" "ascending"
"tolerance.relative" 0.00100000
"start" 0.00000
"outputstart" 0.00000
"stop" 3.90000e-08
"step" 3.90000e-11
"maxstep" 7.80000e-10
"ic" "all"
"useprevic" "no"
"skipdc" "no"
"reltol" 0.00100000
"abstol(V)" 1.00000e-06
"abstol(I)" 1.00000e-12
"temp" 25.0000
"tnom" 27.0000
"tempeffects" "all"
"errpreset" "moderate"
"method" "traponly"
"lteratio" 3.50000
"relref" "sigglobal"
"cmin" 0.00000
"gmin" 1.00000e-12
TYPE
"sweep" FLOAT DOUBLE PROP(
"key" "sweep"
)
"Tau" FLOAT DOUBLE PROP(
"units" "N*m"
"key" "node"
"tolerance" 1.00000e-06
)
"Alpha" FLOAT DOUBLE PROP(
"units" "rads/s^2"
"key" "node"
"tolerance" 1.00000e-06
)
"Omega" FLOAT DOUBLE PROP(
"units" "rads/s"
"key" "node"
"tolerance" 1.00000e-06
)
"Theta" FLOAT DOUBLE PROP(
"units" "rads"
"key" "node"
"tolerance" 1.00000e-06
)
"F" FLOAT DOUBLE PROP(
"units" "N"
"key" "node"
"tolerance" 1.00000e-06
)
"Imp" FLOAT DOUBLE PROP(
"units" "m/s^3"
"key" "node"
"tolerance" 1.00000e-06
)
"Acc" FLOAT DOUBLE PROP(
"units" "m/s^2"
"key" "node"
"tolerance" 1.00000e-06
)
"Vel" FLOAT DOUBLE PROP(
"units" "m/s"
"key" "node"
"tolerance" 1.00000e-06
)
"Pos" FLOAT DOUBLE PROP(
"units" "m"
"key" "node"
"tolerance" 1.00000e-06
)
"Phi" FLOAT DOUBLE PROP(
"units" "Wb"
"key" "node"
"tolerance" 1.00000e-09
)
"Q" FLOAT DOUBLE PROP(
"units" "coul"
"key" "node"
"tolerance" 1.00000e-14
)
"V" FLOAT DOUBLE PROP(
"units" "V"
"key" "node"
"tolerance" 1.00000e-06
)
"I" FLOAT DOUBLE PROP(
"units" "A"
"key" "branch"
"tolerance" 1.00000e-12
)
"MMF" FLOAT DOUBLE PROP(
"units" "A*turn"
"key" "node"
"tolerance" 1.00000e-12
)
"Wb" FLOAT DOUBLE PROP(
"units" "Wb"
"key" "node"
"tolerance" 1.00000e-09
)
"Temp" FLOAT DOUBLE PROP(
"units" "C"
"key" "node"
"tolerance" 0.000100000
)
"Pwr" FLOAT DOUBLE PROP(
"units" "W"
"key" "node"
"tolerance" 1.00000e-09
)
"U" FLOAT DOUBLE PROP(
"units" ""
"key" "node"
"tolerance" 1.00000e-06
)
"V/Sec" FLOAT DOUBLE PROP(
"units" "V/s"
"key" "node"
"tolerance" 0.000100000
)
"I/Sec" FLOAT DOUBLE PROP(
"units" "A/s"
"key" "node"
"tolerance" 1.00000e-06
)
"1/Sec" FLOAT DOUBLE PROP(
"units" "1/s"
"key" "node"
"tolerance" 0.000100000
)
"HOD" FLOAT DOUBLE PROP(
"units" ""
"key" "node"
"tolerance" 0.0100000
)
"A" FLOAT DOUBLE PROP(
"key" "inst"
)
"W" FLOAT DOUBLE PROP(
"key" "inst"
)
SWEEP
"time" "sweep" PROP(
"sweep_direction" 0
"units" "s"
"plot" 0
"grid" 1
)
TRACE
"Vn_D0:v" "V" PROP(
"units" "V"
)
"Vn_D0:i" "A" PROP(
"units" "A"
)
"Vn_D0:pwr" "W" PROP(
"units" "W"
)
"Vn_D1:v" "V" PROP(
"units" "V"
)
"Vn_D1:i" "A" PROP(
"units" "A"
)
"Vn_D1:pwr" "W" PROP(
"units" "W"
)
"Vn_GND:v" "V" PROP(
"units" "V"
)
"Vn_GND:i" "A" PROP(
"units" "A"
)
"Vn_GND:pwr" "W" PROP(
"units" "W"
)
"Vn_SD:v" "V" PROP(
"units" "V"
)
"Vn_SD:i" "A" PROP(
"units" "A"
)
"Vn_SD:pwr" "W" PROP(
"units" "W"
)
"Vn_VDD:v" "V" PROP(
"units" "V"
)
"Vn_VDD:i" "A" PROP(
"units" "A"
)
"Vn_VDD:pwr" "W" PROP(
"units" "W"
)
"Vn_Z:v" "V" PROP(
"units" "V"
)
"Vn_Z:i" "A" PROP(
"units" "A"
)
"Vn_Z:pwr" "W" PROP(
"units" "W"
)
"n_Z" "V"
"n_D0" "V"
"n_D1" "V"
"n_SD" "V"
"Vn_D0:n" "I"
"Vn_D0:p" "I"
"Vn_D1:n" "I"
"Vn_D1:p" "I"
"Vn_GND:n" "I"
"Vn_GND:p" "I"
"Vn_SD:n" "I"
"Vn_SD:p" "I"
"Vn_VDD:n" "I"
"Vn_VDD:p" "I"
"Vn_Z:n" "I"
"Vn_Z:p" "I"
VALUE
"time" 0.000000000000000e+00
"Vn_D0:v" 0.000000000000000e+00
"Vn_D0:i" 6.510570961348576e-14
"Vn_D0:pwr" 0.000000000000000e+00
"Vn_D1:v" 0.000000000000000e+00
"Vn_D1:i" -4.653010742690437e-13
"Vn_D1:pwr" -0.000000000000000e+00
"Vn_GND:v" 0.000000000000000e+00
"Vn_GND:i" 6.075187591979712e-10
"Vn_GND:pwr" 0.000000000000000e+00
"Vn_SD:v" 0.000000000000000e+00
"Vn_SD:i" -9.790769334738837e-13
"Vn_SD:pwr" -0.000000000000000e+00
"Vn_VDD:v" 1.200000000000000e+00
"Vn_VDD:i" -6.061394868998710e-10
"Vn_VDD:pwr" -7.273673842798453e-10
"Vn_Z:v" 0.000000000000000e+00
"Vn_Z:i" 0.000000000000000e+00
"Vn_Z:pwr" 0.000000000000000e+00
"n_Z" 1.410791788760829e-06
"n_D0" 0.000000000000000e+00
"n_D1" 1.200000000000000e+00
"n_SD" 1.200000000000000e+00
"Vn_D0:n" -6.510570961348576e-14
"Vn_D0:p" 6.510570961348576e-14
"Vn_D1:n" 4.653010742690437e-13
"Vn_D1:p" -4.653010742690437e-13
"Vn_GND:n" -6.075187591979712e-10
"Vn_GND:p" 6.075187591979712e-10
"Vn_SD:n" 9.790769334738837e-13
"Vn_SD:p" -9.790769334738837e-13
"Vn_VDD:n" 6.061394868998710e-10
"Vn_VDD:p" -6.061394868998710e-10
"Vn_Z:n" 0.000000000000000e+00
"Vn_Z:p" 0.000000000000000e+00
"time" 3.900000000000000e-11
"Vn_D0:v" 0.000000000000000e+00
"Vn_D0:i" 6.510783104379259e-14
"Vn_D0:pwr" 0.000000000000000e+00
"Vn_D1:v" 0.000000000000000e+00
"Vn_D1:i" -4.653011229320208e-13
"Vn_D1:pwr" -0.000000000000000e+00
"Vn_GND:v" 0.000000000000000e+00
"Vn_GND:i" 6.075187602112364e-10
"Vn_GND:pwr" 0.000000000000000e+00
"Vn_SD:v" 0.000000000000000e+00
"Vn_SD:i" -9.790771889341895e-13
"Vn_SD:pwr" -0.000000000000000e+00
"Vn_VDD:v" 1.200000000000000e+00
"Vn_VDD:i" -6.061394875904735e-10
"Vn_VDD:pwr" -7.273673851085682e-10
"Vn_Z:v" 0.000000000000000e+00
"Vn_Z:i" -2.139940853269552e-18
"Vn_Z:pwr" -0.000000000000000e+00
"n_Z" 1.410791772069290e-06
"n_D0" 0.000000000000000e+00
"n_D1" 1.200000000000000e+00
"n_SD" 1.200000000000000e+00
"Vn_D0:n" -6.510783104379259e-14
"Vn_D0:p" 6.510783104379259e-14
"Vn_D1:n" 4.653011229320208e-13
"Vn_D1:p" -4.653011229320208e-13
"Vn_GND:n" -6.075187602112364e-10
"Vn_GND:p" 6.075187602112364e-10
"Vn_SD:n" 9.790771889341895e-13
"Vn_SD:p" -9.790771889341895e-13
"Vn_VDD:n" 6.061394875904735e-10
"Vn_VDD:p" -6.061394875904735e-10
"Vn_Z:n" 2.139940853269552e-18
"Vn_Z:p" -2.139940853269552e-18
"time" 1.170000000000000e-10
"Vn_D0:v" 0.000000000000000e+00
"Vn_D0:i" 6.510783510239442e-14
"Vn_D0:pwr" 0.000000000000000e+00
"Vn_D1:v" 0.000000000000000e+00
"Vn_D1:i" -4.653010906308370e-13
"Vn_D1:pwr" -0.000000000000000e+00
"Vn_GND:v" 0.000000000000000e+00
"Vn_GND:i" 6.075187578853047e-10
"Vn_GND:pwr" 0.000000000000000e+00
"Vn_SD:v" 0.000000000000000e+00
"Vn_SD:i" -9.790770033018314e-13
"Vn_SD:pwr" -0.000000000000000e+00
"Vn_VDD:v" 1.200000000000000e+00
"Vn_VDD:i" -6.061394870564561e-10
"Vn_VDD:pwr" -7.273673844677473e-10
"Vn_Z:v" 0.000000000000000e+00
"Vn_Z:i" -5.391907471129544e-19
"Vn_Z:pwr" -0.000000000000000e+00
"n_Z" 1.410791763657914e-06
"n_D0" 0.000000000000000e+00
"n_D1" 1.200000000000000e+00
"n_SD" 1.200000000000000e+00
"Vn_D0:n" -6.510783510239442e-14
"Vn_D0:p" 6.510783510239442e-14
"Vn_D1:n" 4.653010906308370e-13
"Vn_D1:p" -4.653010906308370e-13
"Vn_GND:n" -6.075187578853047e-10
"Vn_GND:p" 6.075187578853047e-10
"Vn_SD:n" 9.790770033018314e-13
"Vn_SD:p" -9.790770033018314e-13
"Vn_VDD:n" 6.061394870564561e-10
"Vn_VDD:p" -6.061394870564561e-10
"Vn_Z:n" 5.391907471129544e-19
"Vn_Z:p" -5.391907471129544e-19
"time" 2.730000000000000e-10
"Vn_D0:v" 0.000000000000000e+00
"Vn_D0:i" 6.510782922697905e-14
"Vn_D0:pwr" 0.000000000000000e+00
"Vn_D1:v" 0.000000000000000e+00
"Vn_D1:i" -4.653012258927765e-13
"Vn_D1:pwr" -0.000000000000000e+00
"Vn_GND:v" 0.000000000000000e+00
"Vn_GND:i" 6.075187557584261e-10
"Vn_GND:pwr" 0.000000000000000e+00
"Vn_SD:v" 0.000000000000000e+00
"Vn_SD:i" -9.790769052998079e-13
"Vn_SD:pwr" -0.000000000000000e+00
"Vn_VDD:v" 1.200000000000000e+00
"Vn_VDD:i" -6.061394879062087e-10
"Vn_VDD:pwr" -7.273673854874505e-10
"Vn_Z:v" 0.000000000000000e+00
"Vn_Z:i" 1.666683779491957e-19
"Vn_Z:pwr" 0.000000000000000e+00
"n_Z" 1.410791757846565e-06
"n_D0" 0.000000000000000e+00
"n_D1" 1.200000000000000e+00
"n_SD" 1.200000000000000e+00
"Vn_D0:n" -6.510782922697905e-14
"Vn_D0:p" 6.510782922697905e-14
"Vn_D1:n" 4.653012258927765e-13
"Vn_D1:p" -4.653012258927765e-13
"Vn_GND:n" -6.075187557584261e-10
"Vn_GND:p" 6.075187557584261e-10
"Vn_SD:n" 9.790769052998079e-13
"Vn_SD:p" -9.790769052998079e-13
"Vn_VDD:n" 6.061394879062087e-10
"Vn_VDD:p" -6.061394879062087e-10
"Vn_Z:n" -1.666683779491957e-19
"Vn_Z:p" 1.666683779491957e-19
"time" 5.850000000000002e-10
"Vn_D0:v" 0.000000000000000e+00
"Vn_D0:i" 6.510784235483596e-14
"Vn_D0:pwr" 0.000000000000000e+00
"Vn_D1:v" 0.000000000000000e+00
"Vn_D1:i" -4.653010079573599e-13
"Vn_D1:pwr" -0.000000000000000e+00
"Vn_GND:v" 0.000000000000000e+00
"Vn_GND:i" 6.075187596313825e-10
"Vn_GND:pwr" 0.000000000000000e+00
"Vn_SD:v" 0.000000000000000e+00
"Vn_SD:i" -9.790769168296485e-13
"Vn_SD:pwr" -0.000000000000000e+00
"Vn_VDD:v" 1.200000000000000e+00
"Vn_VDD:i" -6.061394864076084e-10
"Vn_VDD:pwr" -7.273673836891300e-10
"Vn_Z:v" 0.000000000000000e+00
"Vn_Z:i" 1.513945088759881e-19
"Vn_Z:pwr" 0.000000000000000e+00
"n_Z" 1.410791767770127e-06
"n_D0" 0.000000000000000e+00
"n_D1" 1.200000000000000e+00
"n_SD" 1.200000000000000e+00
"Vn_D0:n" -6.510784235483596e-14
"Vn_D0:p" 6.510784235483596e-14
"Vn_D1:n" 4.653010079573599e-13
"Vn_D1:p" -4.653010079573599e-13
"Vn_GND:n" -6.075187596313825e-10
"Vn_GND:p" 6.075187596313825e-10
"Vn_SD:n" 9.790769168296485e-13
"Vn_SD:p" -9.790769168296485e-13
"Vn_VDD:n" 6.061394864076084e-10
"Vn_VDD:p" -6.061394864076084e-10
"Vn_Z:n" -1.513945088759881e-19
"Vn_Z:p" 1.513945088759881e-19
"time" 1.209000000000000e-09
"Vn_D0:v" 0.000000000000000e+00
"Vn_D0:i" 6.510782384220154e-14
"Vn_D0:pwr" 0.000000000000000e+00
"Vn_D1:v" 0.000000000000000e+00
"Vn_D1:i" -4.653011487358643e-13
"Vn_D1:pwr" -0.000000000000000e+00
"Vn_GND:v" 0.000000000000000e+00
"Vn_GND:i" 6.075187546850143e-10
"Vn_GND:pwr" 0.000000000000000e+00
"Vn_SD:v" 0.000000000000000e+00
"Vn_SD:i" -9.790769760536138e-13
"Vn_SD:pwr" -0.000000000000000e+00
"Vn_VDD:v" 1.200000000000000e+00
"Vn_VDD:i" -6.061394874610090e-10
"Vn_VDD:pwr" -7.273673849532107e-10
"Vn_Z:v" 0.000000000000000e+00
"Vn_Z:i" -3.568158439228547e-19
"Vn_Z:pwr" -0.000000000000000e+00
"n_Z" 1.410791754951836e-06
"n_D0" 0.000000000000000e+00
"n_D1" 1.200000000000000e+00
"n_SD" 1.200000000000000e+00
"Vn_D0:n" -6.510782384220154e-14
"Vn_D0:p" 6.510782384220154e-14
"Vn_D1:n" 4.653011487358643e-13
"Vn_D1:p" -4.653011487358643e-13
"Vn_GND:n" -6.075187546850143e-10
"Vn_GND:p" 6.075187546850143e-10
"Vn_SD:n" 9.790769760536138e-13
"Vn_SD:p" -9.790769760536138e-13
"Vn_VDD:n" 6.061394874610090e-10
"Vn_VDD:p" -6.061394874610090e-10
"Vn_Z:n" 3.568158439228547e-19
"Vn_Z:p" -3.568158439228547e-19
"time" 1.989000000000000e-09
"Vn_D0:v" 0.000000000000000e+00
"Vn_D0:i" 6.510784179315301e-14
"Vn_D0:pwr" 0.000000000000000e+00
"Vn_D1:v" 0.000000000000000e+00
"Vn_D1:i" -4.653010283820493e-13
"Vn_D1:pwr" -0.000000000000000e+00
"Vn_GND:v" 0.000000000000000e+00
"Vn_GND:i" 6.075187593005278e-10
"Vn_GND:pwr" 0.000000000000000e+00
"Vn_SD:v" 0.000000000000000e+00
"Vn_SD:i" -9.790768685023783e-13
"Vn_SD:pwr" -0.000000000000000e+00
"Vn_VDD:v" 1.200000000000000e+00
"Vn_VDD:i" -6.061394864931693e-10
"Vn_VDD:pwr" -7.273673837918031e-10
"Vn_Z:v" 0.000000000000000e+00
"Vn_Z:i" 5.075249466873887e-19
"Vn_Z:pwr" 0.000000000000000e+00
"n_Z" 1.410791766707146e-06
"n_D0" 0.000000000000000e+00
"n_D1" 1.200000000000000e+00
"n_SD" 1.200000000000000e+00
"Vn_D0:n" -6.510784179315301e-14
"Vn_D0:p" 6.510784179315301e-14
"Vn_D1:n" 4.653010283820493e-13
"Vn_D1:p" -4.653010283820493e-13
"Vn_GND:n" -6.075187593005278e-10
"Vn_GND:p" 6.075187593005278e-10
"Vn_SD:n" 9.790768685023783e-13
"Vn_SD:p" -9.790768685023783e-13
"Vn_VDD:n" 6.061394864931693e-10
"Vn_VDD:p" -6.061394864931693e-10
"Vn_Z:n" -5.075249466873887e-19
"Vn_Z:p" 5.075249466873887e-19
"time" 2.769000000000001e-09
"Vn_D0:v" 0.000000000000000e+00
"Vn_D0:i" 6.510781835339270e-14
"Vn_D0:pwr" 0.000000000000000e+00
"Vn_D1:v" 0.000000000000000e+00
"Vn_D1:i" -4.653009992317535e-13
"Vn_D1:pwr" -0.000000000000000e+00
"Vn_GND:v" 0.000000000000000e+00
"Vn_GND:i" 6.075187554274093e-10
"Vn_GND:pwr" 0.000000000000000e+00
"Vn_SD:v" 0.000000000000000e+00
"Vn_SD:i" -9.790770139405005e-13
"Vn_SD:pwr" -0.000000000000000e+00
"Vn_VDD:v" 1.200000000000000e+00
"Vn_VDD:i" -6.061394865228361e-10
"Vn_VDD:pwr" -7.273673838274033e-10
"Vn_Z:v" 0.000000000000000e+00
"Vn_Z:i" -6.365508826218863e-19
"Vn_Z:pwr" -0.000000000000000e+00
"n_Z" 1.410791756643123e-06
"n_D0" 0.000000000000000e+00
"n_D1" 1.200000000000000e+00
"n_SD" 1.200000000000000e+00
"Vn_D0:n" -6.510781835339270e-14
"Vn_D0:p" 6.510781835339270e-14
"Vn_D1:n" 4.653009992317535e-13
"Vn_D1:p" -4.653009992317535e-13
"Vn_GND:n" -6.075187554274093e-10
"Vn_GND:p" 6.075187554274093e-10
"Vn_SD:n" 9.790770139405005e-13
"Vn_SD:p" -9.790770139405005e-13
"Vn_VDD:n" 6.061394865228361e-10
"Vn_VDD:p" -6.061394865228361e-10
"Vn_Z:n" 6.365508826218863e-19
"Vn_Z:p" -6.365508826218863e-19
"time" 3.000000000000000e-09
"Vn_D0:v" 0.000000000000000e+00
"Vn_D0:i" 6.510784254121607e-14
"Vn_D0:pwr" 0.000000000000000e+00
"Vn_D1:v" 0.000000000000000e+00
"Vn_D1:i" -4.653011114341523e-13
"Vn_D1:pwr" -0.000000000000000e+00
"Vn_GND:v" 0.000000000000000e+00
"Vn_GND:i" 6.075187583510517e-10
"Vn_GND:pwr" 0.000000000000000e+00
"Vn_SD:v" 0.000000000000000e+00
"Vn_SD:i" -9.790768109163056e-13
"Vn_SD:pwr" -0.000000000000000e+00
"Vn_VDD:v" 1.200000000000000e+00
"Vn_VDD:i" -6.061394869465562e-10
"Vn_VDD:pwr" -7.273673843358674e-10
"Vn_Z:v" 0.000000000000000e+00
"Vn_Z:i" 9.575561619947464e-19
"Vn_Z:pwr" 0.000000000000000e+00
"n_Z" 1.410791764058345e-06
"n_D0" 0.000000000000000e+00
"n_D1" 1.200000000000000e+00
"n_SD" 1.200000000000000e+00
"Vn_D0:n" -6.510784254121607e-14
"Vn_D0:p" 6.510784254121607e-14
"Vn_D1:n" 4.653011114341523e-13
"Vn_D1:p" -4.653011114341523e-13
"Vn_GND:n" -6.075187583510517e-10
"Vn_GND:p" 6.075187583510517e-10
"Vn_SD:n" 9.790768109163056e-13
"Vn_SD:p" -9.790768109163056e-13
"Vn_VDD:n" 6.061394869465562e-10
"Vn_VDD:p" -6.061394869465562e-10
"Vn_Z:n" -9.575561619947464e-19
"Vn_Z:p" 9.575561619947464e-19
"time" 3.000020850694444e-09
"Vn_D0:v" 0.000000000000000e+00
"Vn_D0:i" -6.871678921432986e-07
"Vn_D0:pwr" -0.000000000000000e+00
"Vn_D1:v" 0.000000000000000e+00
"Vn_D1:i" -1.273506158179182e-06
"Vn_D1:pwr" -0.000000000000000e+00
"Vn_GND:v" 0.000000000000000e+00
"Vn_GND:i" -7.687135475932155e-05
"Vn_GND:pwr" -0.000000000000000e+00
"Vn_SD:v" 0.000000000000000e+00
"Vn_SD:i" 1.963879391607146e-04
"Vn_SD:pwr" 0.000000000000000e+00
"Vn_VDD:v" 1.200000000000000e+00
"Vn_VDD:i" -1.081731126439115e-04
"Vn_VDD:pwr" -1.298077351726938e-04
"Vn_Z:v" 0.000000000000000e+00
"Vn_Z:i" -9.382797707139684e-06
"Vn_Z:pwr" -0.000000000000000e+00
"n_Z" -3.771677784062121e-05
"n_D0" 0.000000000000000e+00
"n_D1" 1.200000000000000e+00
"n_SD" 1.197497916666695e+00
"Vn_D0:n" 6.871678921432986e-07
"Vn_D0:p" -6.871678921432986e-07
"Vn_D1:n" 1.273506158179182e-06
"Vn_D1:p" -1.273506158179182e-06
"Vn_GND:n" 7.687135475932155e-05
"Vn_GND:p" -7.687135475932155e-05
"Vn_SD:n" -1.963879391607146e-04
"Vn_SD:p" 1.963879391607146e-04
"Vn_VDD:n" 1.081731126439115e-04
"Vn_VDD:p" -1.081731126439115e-04
"Vn_Z:n" 9.382797707139684e-06
"Vn_Z:p" -9.382797707139684e-06
"time" 3.000062552083333e-09
"Vn_D0:v" 0.000000000000000e+00
"Vn_D0:i" -1.979749046665593e-06
"Vn_D0:pwr" -0.000000000000000e+00
"Vn_D1:v" 0.000000000000000e+00
"Vn_D1:i" -3.417236596424373e-06
"Vn_D1:pwr" -0.000000000000000e+00
"Vn_GND:v" 0.000000000000000e+00
"Vn_GND:i" -7.247169427057604e-05
"Vn_GND:pwr" -0.000000000000000e+00
"Vn_SD:v" 0.000000000000000e+00
"Vn_SD:i" 2.094780303326690e-04
"Vn_SD:pwr" 0.000000000000000e+00
"Vn_VDD:v" 1.200000000000000e+00
"Vn_VDD:i" -1.073770530519008e-04
"Vn_VDD:pwr" -1.288524636622810e-04
"Vn_Z:v" 0.000000000000000e+00
"Vn_Z:i" -2.423229736709784e-05
"Vn_Z:pwr" -0.000000000000000e+00
"n_Z" -1.778963930618160e-04
"n_D0" 0.000000000000000e+00
"n_D1" 1.200000000000000e+00
"n_SD" 1.192493750000085e+00
"Vn_D0:n" 1.979749046665593e-06
"Vn_D0:p" -1.979749046665593e-06
"Vn_D1:n" 3.417236596424373e-06
"Vn_D1:p" -3.417236596424373e-06
"Vn_GND:n" 7.247169427057604e-05
"Vn_GND:p" -7.247169427057604e-05
"Vn_SD:n" -2.094780303326690e-04
"Vn_SD:p" 2.094780303326690e-04
"Vn_VDD:n" 1.073770530519008e-04
"Vn_VDD:p" -1.073770530519008e-04
"Vn_Z:n" 2.423229736709784e-05
"Vn_Z:p" -2.423229736709784e-05
"time" 3.000145954861109e-09
"Vn_D0:v" 0.000000000000000e+00
"Vn_D0:i" -4.033736790978477e-06
"Vn_D0:pwr" -0.000000000000000e+00
"Vn_D1:v" 0.000000000000000e+00
"Vn_D1:i" -5.714669789463016e-06
"Vn_D1:pwr" -0.000000000000000e+00
"Vn_GND:v" 0.000000000000000e+00
"Vn_GND:i" -6.917881230394127e-05
"Vn_GND:pwr" -0.000000000000000e+00
"Vn_SD:v" 0.000000000000000e+00
"Vn_SD:i" 2.228401118188567e-04
"Vn_SD:pwr" 0.000000000000000e+00
"Vn_VDD:v" 1.200000000000000e+00
"Vn_VDD:i" -1.057743455271005e-04
"Vn_VDD:pwr" -1.269292146325206e-04
"Vn_Z:v" 0.000000000000000e+00
"Vn_Z:i" -3.813854740735973e-05
"Vn_Z:pwr" -0.000000000000000e+00
"n_Z" -6.980865637095868e-04
"n_D0" 0.000000000000000e+00
"n_D1" 1.200000000000000e+00
"n_SD" 1.182485416666864e+00
"Vn_D0:n" 4.033736790978477e-06
"Vn_D0:p" -4.033736790978477e-06
"Vn_D1:n" 5.714669789463016e-06
"Vn_D1:p" -5.714669789463016e-06
"Vn_GND:n" 6.917881230394127e-05
"Vn_GND:p" -6.917881230394127e-05
"Vn_SD:n" -2.228401118188567e-04
"Vn_SD:p" 2.228401118188567e-04
"Vn_VDD:n" 1.057743455271005e-04
"Vn_VDD:p" -1.057743455271005e-04
"Vn_Z:n" 3.813854740735973e-05
"Vn_Z:p" -3.813854740735973e-05
"time" 3.000312760416663e-09
"Vn_D0:v" 0.000000000000000e+00
"Vn_D0:i" -6.420229052521767e-06
"Vn_D0:pwr" -0.000000000000000e+00
"Vn_D1:v" 0.000000000000000e+00
"Vn_D1:i" -6.614366351498870e-06
"Vn_D1:pwr" -0.000000000000000e+00
"Vn_GND:v" 0.000000000000000e+00
"Vn_GND:i" -7.008053361379145e-05
"Vn_GND:pwr" -0.000000000000000e+00
"Vn_SD:v" 0.000000000000000e+00
"Vn_SD:i" 2.322058314040384e-04
"Vn_SD:pwr" 0.000000000000000e+00
"Vn_VDD:v" 1.200000000000000e+00
"Vn_VDD:i" -1.053821098344334e-04
"Vn_VDD:pwr" -1.264585318013201e-04
"Vn_Z:v" 0.000000000000000e+00
"Vn_Z:i" -4.370859255180877e-05
"Vn_Z:pwr" -0.000000000000000e+00
"n_Z" -2.063342328846435e-03
"n_D0" 0.000000000000000e+00
"n_D1" 1.200000000000000e+00
"n_SD" 1.162468750000424e+00
"Vn_D0:n" 6.420229052521767e-06
"Vn_D0:p" -6.420229052521767e-06
"Vn_D1:n" 6.614366351498870e-06
"Vn_D1:p" -6.614366351498870e-06
"Vn_GND:n" 7.008053361379145e-05
"Vn_GND:p" -7.008053361379145e-05
"Vn_SD:n" -2.322058314040384e-04
"Vn_SD:p" 2.322058314040384e-04
"Vn_VDD:n" 1.053821098344334e-04
"Vn_VDD:p" -1.053821098344334e-04
"Vn_Z:n" 4.370859255180877e-05
"Vn_Z:p" -4.370859255180877e-05
"time" 3.000565861772966e-09
"Vn_D0:v" 0.000000000000000e+00
"Vn_D0:i" -7.637758672207612e-06
"Vn_D0:pwr" -0.000000000000000e+00
"Vn_D1:v" 0.000000000000000e+00
"Vn_D1:i" -5.552093162823104e-06
"Vn_D1:pwr" -0.000000000000000e+00
"Vn_GND:v" 0.000000000000000e+00
"Vn_GND:i" -7.421268656315381e-05
"Vn_GND:pwr" -0.000000000000000e+00
"Vn_SD:v" 0.000000000000000e+00
"Vn_SD:i" 2.359598855895768e-04
"Vn_SD:pwr" 0.000000000000000e+00
"Vn_VDD:v" 1.200000000000000e+00
"Vn_VDD:i" -1.049874207366734e-04
"Vn_VDD:pwr" -1.259849048840081e-04
"Vn_Z:v" 0.000000000000000e+00
"Vn_Z:i" -4.356992645469988e-05
"Vn_Z:pwr" -0.000000000000000e+00
"n_Z" -4.272373482507987e-03
"n_D0" 0.000000000000000e+00
"n_D1" 1.200000000000000e+00
"n_SD" 1.132096587244132e+00
"Vn_D0:n" 7.637758672207612e-06
"Vn_D0:p" -7.637758672207612e-06
"Vn_D1:n" 5.552093162823104e-06
"Vn_D1:p" -5.552093162823104e-06
"Vn_GND:n" 7.421268656315381e-05
"Vn_GND:p" -7.421268656315381e-05
"Vn_SD:n" -2.359598855895768e-04
"Vn_SD:p" 2.359598855895768e-04
"Vn_VDD:n" 1.049874207366734e-04
"Vn_VDD:p" -1.049874207366734e-04
"Vn_Z:n" 4.356992645469988e-05
"Vn_Z:p" -4.356992645469988e-05
"time" 3.000933643203660e-09
"Vn_D0:v" 0.000000000000000e+00
"Vn_D0:i" -7.675434274165016e-06
"Vn_D0:pwr" -0.000000000000000e+00
"Vn_D1:v" 0.000000000000000e+00
"Vn_D1:i" -4.240480288155663e-06
"Vn_D1:pwr" -0.000000000000000e+00
"Vn_GND:v" 0.000000000000000e+00
"Vn_GND:i" -7.939509568463241e-05
"Vn_GND:pwr" -0.000000000000000e+00
"Vn_SD:v" 0.000000000000000e+00
"Vn_SD:i" 2.382197813021681e-04
"Vn_SD:pwr" 0.000000000000000e+00
"Vn_VDD:v" 1.200000000000000e+00
"Vn_VDD:i" -1.030167467714001e-04
"Vn_VDD:pwr" -1.236200961256801e-04
"Vn_Z:v" 0.000000000000000e+00
