HEADER
"PSFversion" "1.00"
"simulator" "spectre"
"version" "10.1.1.164.isr11"
"date" "3:02:49 PM, Fri Oct 17, 2014"
"design" "* Spectre Timing Acquisition"
"analysis type" "foreach"
"analysis name" "transient1"
"analysis description" "Foreach parent"
"analysis title" "Foreach of paramSet stimdata parent"
"xVecSorted" "unsorted"
"tolerance.relative" 0.00100000
TYPE
"sweep" FLOAT DOUBLE PROP(
"key" "sweep"
)
"Tau" FLOAT DOUBLE PROP(
"units" "N*m"
"key" "node"
"tolerance" 1.00000e-06
)
"Alpha" FLOAT DOUBLE PROP(
"units" "rads/s^2"
"key" "node"
"tolerance" 1.00000e-06
)
"Omega" FLOAT DOUBLE PROP(
"units" "rads/s"
"key" "node"
"tolerance" 1.00000e-06
)
"Theta" FLOAT DOUBLE PROP(
"units" "rads"
"key" "node"
"tolerance" 1.00000e-06
)
"F" FLOAT DOUBLE PROP(
"units" "N"
"key" "node"
"tolerance" 1.00000e-06
)
"Imp" FLOAT DOUBLE PROP(
"units" "m/s^3"
"key" "node"
"tolerance" 1.00000e-06
)
"Acc" FLOAT DOUBLE PROP(
"units" "m/s^2"
"key" "node"
"tolerance" 1.00000e-06
)
"Vel" FLOAT DOUBLE PROP(
"units" "m/s"
"key" "node"
"tolerance" 1.00000e-06
)
"Pos" FLOAT DOUBLE PROP(
"units" "m"
"key" "node"
"tolerance" 1.00000e-06
)
"Phi" FLOAT DOUBLE PROP(
"units" "Wb"
"key" "node"
"tolerance" 1.00000e-09
)
"Q" FLOAT DOUBLE PROP(
"units" "coul"
"key" "node"
"tolerance" 1.00000e-14
)
"V" FLOAT DOUBLE PROP(
"units" "V"
"key" "node"
"tolerance" 1.00000e-06
)
"I" FLOAT DOUBLE PROP(
"units" "A"
"key" "branch"
"tolerance" 1.00000e-12
)
"MMF" FLOAT DOUBLE PROP(
"units" "A*turn"
"key" "node"
"tolerance" 1.00000e-12
)
"Wb" FLOAT DOUBLE PROP(
"units" "Wb"
"key" "node"
"tolerance" 1.00000e-09
)
"Temp" FLOAT DOUBLE PROP(
"units" "C"
"key" "node"
"tolerance" 0.000100000
)
"Pwr" FLOAT DOUBLE PROP(
"units" "W"
"key" "node"
"tolerance" 1.00000e-09
)
"U" FLOAT DOUBLE PROP(
"units" ""
"key" "node"
"tolerance" 1.00000e-06
)
"V/Sec" FLOAT DOUBLE PROP(
"units" "V/s"
"key" "node"
"tolerance" 0.000100000
)
"I/Sec" FLOAT DOUBLE PROP(
"units" "A/s"
"key" "node"
"tolerance" 1.00000e-06
)
"1/Sec" FLOAT DOUBLE PROP(
"units" "1/s"
"key" "node"
"tolerance" 0.000100000
)
"HOD" FLOAT DOUBLE PROP(
"units" ""
"key" "node"
"tolerance" 0.0100000
)
SWEEP
"stimdata" "sweep" PROP(
"sweep_direction" 0
"units" "real"
"plot" 0
"grid" 1
)
TRACE
"_paramsetIndex" "sweep"
"index" "sweep"
"ncxtd" "sweep"
"adrv_cap" "sweep"
"iptr" "sweep"
"load_cap" "sweep"
"t_D00" "sweep"
"v_D00" "sweep"
"t_D01" "sweep"
"v_D01" "sweep"
"t_D02" "sweep"
"v_D02" "sweep"
"t_D03" "sweep"
"v_D03" "sweep"
"t_D04" "sweep"
"v_D04" "sweep"
"t_D05" "sweep"
"v_D05" "sweep"
"t_D10" "sweep"
"v_D10" "sweep"
"t_D11" "sweep"
"v_D11" "sweep"
"t_D12" "sweep"
"v_D12" "sweep"
"t_D13" "sweep"
"v_D13" "sweep"
"t_D14" "sweep"
"v_D14" "sweep"
"t_D15" "sweep"
"v_D15" "sweep"
"t_SD0" "sweep"
"v_SD0" "sweep"
"t_SD1" "sweep"
"v_SD1" "sweep"
"t_SD2" "sweep"
"v_SD2" "sweep"
"t_SD3" "sweep"
"v_SD3" "sweep"
"t_SD4" "sweep"
"v_SD4" "sweep"
"t_SD5" "sweep"
"v_SD5" "sweep"
"t_SD6" "sweep"
"v_SD6" "sweep"
"t_SD7" "sweep"
"v_SD7" "sweep"
"t_SD8" "sweep"
"v_SD8" "sweep"
"t_SD9" "sweep"
"v_SD9" "sweep"
"t_SD10" "sweep"
"v_SD10" "sweep"
"t_SD11" "sweep"
"v_SD11" "sweep"
"t_SD12" "sweep"
"v_SD12" "sweep"
"t_SD13" "sweep"
"v_SD13" "sweep"
"t_SD14" "sweep"
"v_SD14" "sweep"
"t_SD15" "sweep"
"v_SD15" "sweep"
"t_SD16" "sweep"
"v_SD16" "sweep"
"t_SD17" "sweep"
"v_SD17" "sweep"
"t_SD18" "sweep"
"v_SD18" "sweep"
"t_SD19" "sweep"
"v_SD19" "sweep"
"t_SD20" "sweep"
"v_SD20" "sweep"
"t_SD21" "sweep"
"v_SD21" "sweep"
"t_SD22" "sweep"
"v_SD22" "sweep"
"t_SD23" "sweep"
"v_SD23" "sweep"
"t_SD24" "sweep"
"v_SD24" "sweep"
"t_SD25" "sweep"
"v_SD25" "sweep"
"t_SD26" "sweep"
"v_SD26" "sweep"
"t_SD27" "sweep"
"v_SD27" "sweep"
"t_SD28" "sweep"
"v_SD28" "sweep"
"t_SD29" "sweep"
"v_SD29" "sweep"
"t_SD30" "sweep"
"v_SD30" "sweep"
VALUE
"stimdata" 1.000000000000000e+00
"_paramsetIndex" 0.000000000000000e+00
"index" 0.000000000000000e+00
"ncxtd" 6.020000000000000e-09
"adrv_cap" 5.000000000000000e-12
"iptr" 5.000000000000000e-11
"load_cap" 5.000000000000000e-15
"t_D00" 0.000000000000000e+00
"v_D00" 0.000000000000000e+00
"t_D01" 3.000000000000000e-09
"v_D01" 0.000000000000000e+00
"t_D02" 3.010000000000000e-09
"v_D02" 0.000000000000000e+00
"t_D03" 6.010000000000000e-09
"v_D03" 0.000000000000000e+00
"t_D04" 6.020000000000000e-09
"v_D04" 0.000000000000000e+00
"t_D05" 9.020000000000001e-09
"v_D05" 0.000000000000000e+00
"t_D10" 0.000000000000000e+00
"v_D10" 1.200000000000000e+00
"t_D11" 3.000000000000000e-09
"v_D11" 1.200000000000000e+00
"t_D12" 3.010000000000000e-09
"v_D12" 1.200000000000000e+00
"t_D13" 6.010000000000000e-09
"v_D13" 1.200000000000000e+00
"t_D14" 6.020000000000000e-09
"v_D14" 1.200000000000000e+00
"t_D15" 9.020000000000001e-09
"v_D15" 1.200000000000000e+00
"t_SD0" 0.000000000000000e+00
"v_SD0" 1.200000000000000e+00
"t_SD1" 3.000000000000000e-09
"v_SD1" 1.200000000000000e+00
"t_SD2" 3.010000000000000e-09
"v_SD2" 0.000000000000000e+00
"t_SD3" 6.010000000000000e-09
"v_SD3" 0.000000000000000e+00
"t_SD4" 6.019999795400000e-09
"v_SD4" 0.000000000000000e+00
"t_SD5" 6.039988555300000e-09
"v_SD5" 2.400000000000000e-02
"t_SD6" 6.059977315100000e-09
"v_SD6" 4.800000000000000e-02
"t_SD7" 6.079966075000000e-09
"v_SD7" 7.199999999999999e-02
"t_SD8" 6.099954834900000e-09
"v_SD8" 9.600000000000000e-02
"t_SD9" 6.118888714300000e-09
"v_SD9" 1.200000000000000e-01
"t_SD10" 6.121858998100000e-09
"v_SD10" 1.800000000000000e-01
"t_SD11" 6.124511226100000e-09
"v_SD11" 2.400000000000000e-01
"t_SD12" 6.127021069500000e-09
"v_SD12" 3.000000000000000e-01
"t_SD13" 6.129486018600000e-09
"v_SD13" 3.600000000000000e-01
"t_SD14" 6.131904149600000e-09
"v_SD14" 4.200000000000000e-01
"t_SD15" 6.134348480000000e-09
"v_SD15" 4.800000000000000e-01
"t_SD16" 6.136804054700000e-09
"v_SD16" 5.400000000000000e-01
"t_SD17" 6.139347723200000e-09
"v_SD17" 6.000000000000000e-01
"t_SD18" 6.141913187800000e-09
"v_SD18" 6.600000000000000e-01
"t_SD19" 6.144691349900000e-09
"v_SD19" 7.200000000000000e-01
"t_SD20" 6.147499613800000e-09
"v_SD20" 7.800000000000000e-01
"t_SD21" 6.150518645700000e-09
"v_SD21" 8.400000000000000e-01
"t_SD22" 6.153916042200000e-09
"v_SD22" 9.000000000000000e-01
"t_SD23" 6.157766127700000e-09
"v_SD23" 9.600000000000000e-01
"t_SD24" 6.162712641600000e-09
"v_SD24" 1.020000000000000e+00
"t_SD25" 6.168886041100000e-09
"v_SD25" 1.080000000000000e+00
"t_SD26" 6.172644289800000e-09
"v_SD26" 1.104000000000000e+00
"t_SD27" 6.177175199900000e-09
"v_SD27" 1.128000000000000e+00
"t_SD28" 6.185268566200000e-09
"v_SD28" 1.152000000000000e+00
"t_SD29" 6.193361932400000e-09
"v_SD29" 1.176000000000000e+00
"t_SD30" 1.050145932800000e-07
"v_SD30" 1.200000000000000e+00
"stimdata" 2.000000000000000e+00
"_paramsetIndex" 1.000000000000000e+00
"index" 1.000000000000000e+00
"ncxtd" 6.020000000000000e-09
"adrv_cap" 5.000000000000000e-12
"iptr" 7.000000000000000e-11
"load_cap" 5.000000000000000e-15
"t_D00" 0.000000000000000e+00
"v_D00" 0.000000000000000e+00
"t_D01" 3.000000000000000e-09
"v_D01" 0.000000000000000e+00
"t_D02" 3.010000000000000e-09
"v_D02" 0.000000000000000e+00
"t_D03" 6.010000000000000e-09
"v_D03" 0.000000000000000e+00
"t_D04" 6.020000000000000e-09
"v_D04" 0.000000000000000e+00
"t_D05" 9.020000000000001e-09
"v_D05" 0.000000000000000e+00
"t_D10" 0.000000000000000e+00
"v_D10" 1.200000000000000e+00
"t_D11" 3.000000000000000e-09
"v_D11" 1.200000000000000e+00
"t_D12" 3.010000000000000e-09
"v_D12" 1.200000000000000e+00
"t_D13" 6.010000000000000e-09
"v_D13" 1.200000000000000e+00
"t_D14" 6.020000000000000e-09
"v_D14" 1.200000000000000e+00
"t_D15" 9.020000000000001e-09
"v_D15" 1.200000000000000e+00
"t_SD0" 0.000000000000000e+00
"v_SD0" 1.200000000000000e+00
"t_SD1" 3.000000000000000e-09
"v_SD1" 1.200000000000000e+00
"t_SD2" 3.010000000000000e-09
"v_SD2" 0.000000000000000e+00
"t_SD3" 6.010000000000000e-09
"v_SD3" 0.000000000000000e+00
"t_SD4" 6.019999743400000e-09
"v_SD4" 0.000000000000000e+00
"t_SD5" 6.045067290800000e-09
"v_SD5" 2.400000000000000e-02
"t_SD6" 6.070134838100000e-09
"v_SD6" 4.800000000000000e-02
"t_SD7" 6.095202385400000e-09
"v_SD7" 7.199999999999999e-02
"t_SD8" 6.120089736100000e-09
"v_SD8" 9.600000000000000e-02
"t_SD9" 6.121640234000000e-09
"v_SD9" 1.200000000000000e-01
"t_SD10" 6.125471700600000e-09
"v_SD10" 1.800000000000000e-01
"t_SD11" 6.128914990100000e-09
"v_SD11" 2.400000000000000e-01
"t_SD12" 6.132269924700000e-09
"v_SD12" 3.000000000000000e-01
"t_SD13" 6.135612974000000e-09
"v_SD13" 3.600000000000000e-01
"t_SD14" 6.138979013000000e-09
"v_SD14" 4.200000000000000e-01
"t_SD15" 6.142411847100000e-09
"v_SD15" 4.800000000000000e-01
"t_SD16" 6.145945049700000e-09
"v_SD16" 5.400000000000000e-01
"t_SD17" 6.149518241700000e-09
"v_SD17" 6.000000000000000e-01
"t_SD18" 6.153255976700000e-09
"v_SD18" 6.600000000000000e-01
"t_SD19" 6.157109256500000e-09
"v_SD19" 7.200000000000000e-01
"t_SD20" 6.161217974000000e-09
"v_SD20" 7.800000000000000e-01
"t_SD21" 6.165537454200000e-09
"v_SD21" 8.400000000000000e-01
"t_SD22" 6.170553930400000e-09
"v_SD22" 9.000000000000000e-01
"t_SD23" 6.176117301100000e-09
"v_SD23" 9.600000000000000e-01
"t_SD24" 6.183112218100000e-09
"v_SD24" 1.020000000000000e+00
"t_SD25" 6.192115520100000e-09
"v_SD25" 1.080000000000000e+00
"t_SD26" 6.197174785400000e-09
"v_SD26" 1.104000000000000e+00
"t_SD27" 6.204523484200000e-09
"v_SD27" 1.128000000000000e+00
"t_SD28" 6.211872183100000e-09
"v_SD28" 1.152000000000000e+00
"t_SD29" 6.235666726100000e-09
"v_SD29" 1.176000000000000e+00
"t_SD30" 1.051086809300000e-07
"v_SD30" 1.200000000000000e+00
"stimdata" 3.000000000000000e+00
"_paramsetIndex" 2.000000000000000e+00
"index" 2.000000000000000e+00
"ncxtd" 6.020000000000000e-09
"adrv_cap" 5.000000000000000e-12
"iptr" 9.000000000000000e-11
"load_cap" 5.000000000000000e-15
"t_D00" 0.000000000000000e+00
"v_D00" 0.000000000000000e+00
"t_D01" 3.000000000000000e-09
"v_D01" 0.000000000000000e+00
"t_D02" 3.010000000000000e-09
"v_D02" 0.000000000000000e+00
"t_D03" 6.010000000000000e-09
"v_D03" 0.000000000000000e+00
"t_D04" 6.020000000000000e-09
"v_D04" 0.000000000000000e+00
"t_D05" 9.020000000000001e-09
"v_D05" 0.000000000000000e+00
"t_D10" 0.000000000000000e+00
"v_D10" 1.200000000000000e+00
"t_D11" 3.000000000000000e-09
"v_D11" 1.200000000000000e+00
"t_D12" 3.010000000000000e-09
"v_D12" 1.200000000000000e+00
"t_D13" 6.010000000000000e-09
"v_D13" 1.200000000000000e+00
"t_D14" 6.020000000000000e-09
"v_D14" 1.200000000000000e+00
"t_D15" 9.020000000000001e-09
"v_D15" 1.200000000000000e+00
"t_SD0" 0.000000000000000e+00
"v_SD0" 1.200000000000000e+00
"t_SD1" 3.000000000000000e-09
"v_SD1" 1.200000000000000e+00
"t_SD2" 3.010000000000000e-09
"v_SD2" 0.000000000000000e+00
"t_SD3" 6.010000000000000e-09
"v_SD3" 0.000000000000000e+00
"t_SD4" 6.019999550200000e-09
"v_SD4" 0.000000000000000e+00
"t_SD5" 6.063951513100000e-09
"v_SD5" 2.400000000000000e-02
"t_SD6" 6.107903476000000e-09
"v_SD6" 4.800000000000000e-02
"t_SD7" 6.119879601800000e-09
"v_SD7" 7.199999999999999e-02
"t_SD8" 6.122088753200000e-09
"v_SD8" 9.600000000000000e-02
"t_SD9" 6.123927476800000e-09
"v_SD9" 1.200000000000000e-01
"t_SD10" 6.128509092000000e-09
"v_SD10" 1.800000000000000e-01
"t_SD11" 6.132768832400000e-09
"v_SD11" 2.400000000000000e-01
"t_SD12" 6.136993519400000e-09
"v_SD12" 3.000000000000000e-01
"t_SD13" 6.141266229700000e-09
"v_SD13" 3.600000000000000e-01
"t_SD14" 6.145628498700000e-09
"v_SD14" 4.200000000000000e-01
"t_SD15" 6.150057328100000e-09
"v_SD15" 4.800000000000000e-01
"t_SD16" 6.154605292700000e-09
"v_SD16" 5.400000000000000e-01
"t_SD17" 6.159249831500000e-09
"v_SD17" 6.000000000000000e-01
"t_SD18" 6.164092265700000e-09
"v_SD18" 6.600000000000000e-01
"t_SD19" 6.169177712200000e-09
"v_SD19" 7.200000000000000e-01
"t_SD20" 6.174512147300000e-09
"v_SD20" 7.800000000000000e-01
"t_SD21" 6.180233679400000e-09
"v_SD21" 8.400000000000000e-01
"t_SD22" 6.186888353300000e-09
"v_SD22" 9.000000000000000e-01
"t_SD23" 6.193543027300000e-09
"v_SD23" 9.600000000000000e-01
"t_SD24" 6.202814395500000e-09
"v_SD24" 1.020000000000000e+00
"t_SD25" 6.214457358400000e-09
"v_SD25" 1.080000000000000e+00
"t_SD26" 6.221147970100000e-09
"v_SD26" 1.104000000000000e+00
"t_SD27" 6.230287180900000e-09
"v_SD27" 1.128000000000000e+00
"t_SD28" 6.239426391800000e-09
"v_SD28" 1.152000000000000e+00
"t_SD29" 6.271260821900000e-09
"v_SD29" 1.176000000000000e+00
"t_SD30" 1.050712966100000e-07
"v_SD30" 1.200000000000000e+00
"stimdata" 4.000000000000000e+00
"_paramsetIndex" 3.000000000000000e+00
"index" 3.000000000000000e+00
"ncxtd" 6.020000000000000e-09
"adrv_cap" 5.000000000000000e-12
"iptr" 1.000000000000000e-10
"load_cap" 5.000000000000000e-15
"t_D00" 0.000000000000000e+00
"v_D00" 0.000000000000000e+00
"t_D01" 3.000000000000000e-09
"v_D01" 0.000000000000000e+00
"t_D02" 3.010000000000000e-09
"v_D02" 0.000000000000000e+00
"t_D03" 6.010000000000000e-09
"v_D03" 0.000000000000000e+00
"t_D04" 6.020000000000000e-09
"v_D04" 0.000000000000000e+00
"t_D05" 9.020000000000001e-09
"v_D05" 0.000000000000000e+00
"t_D10" 0.000000000000000e+00
"v_D10" 1.200000000000000e+00
"t_D11" 3.000000000000000e-09
"v_D11" 1.200000000000000e+00
"t_D12" 3.010000000000000e-09
"v_D12" 1.200000000000000e+00
"t_D13" 6.010000000000000e-09
"v_D13" 1.200000000000000e+00
"t_D14" 6.020000000000000e-09
"v_D14" 1.200000000000000e+00
"t_D15" 9.020000000000001e-09
"v_D15" 1.200000000000000e+00
"t_SD0" 0.000000000000000e+00
"v_SD0" 1.200000000000000e+00
"t_SD1" 3.000000000000000e-09
"v_SD1" 1.200000000000000e+00
"t_SD2" 3.010000000000000e-09
"v_SD2" 0.000000000000000e+00
"t_SD3" 6.010000000000000e-09
"v_SD3" 0.000000000000000e+00
"t_SD4" 6.019999479700000e-09
"v_SD4" 0.000000000000000e+00
"t_SD5" 6.070832432300000e-09
"v_SD5" 2.400000000000000e-02
"t_SD6" 6.118186693900000e-09
"v_SD6" 4.800000000000000e-02
"t_SD7" 6.120703910900000e-09
"v_SD7" 7.199999999999999e-02
"t_SD8" 6.123005285100000e-09
"v_SD8" 9.600000000000000e-02
"t_SD9" 6.125128798600000e-09
"v_SD9" 1.200000000000000e-01
"t_SD10" 6.129985966100000e-09
"v_SD10" 1.800000000000000e-01
"t_SD11" 6.134668771700000e-09
"v_SD11" 2.400000000000000e-01
"t_SD12" 6.139349304500000e-09
"v_SD12" 3.000000000000000e-01
"t_SD13" 6.144090218100000e-09
"v_SD13" 3.600000000000000e-01
"t_SD14" 6.148933654800000e-09
"v_SD14" 4.200000000000000e-01
"t_SD15" 6.153890886500000e-09
"v_SD15" 4.800000000000000e-01
"t_SD16" 6.158928483700000e-09
"v_SD16" 5.400000000000000e-01
"t_SD17" 6.164125531800000e-09
"v_SD17" 6.000000000000000e-01
"t_SD18" 6.169541571000000e-09
"v_SD18" 6.600000000000000e-01
"t_SD19" 6.175054162600000e-09
"v_SD19" 7.200000000000000e-01
"t_SD20" 6.181260193200000e-09
"v_SD20" 7.800000000000000e-01
"t_SD21" 6.187619905100000e-09
"v_SD21" 8.400000000000000e-01
"t_SD22" 6.194599301600000e-09
"v_SD22" 9.000000000000000e-01
"t_SD23" 6.203074873600000e-09
"v_SD23" 9.600000000000000e-01
"t_SD24" 6.212312604000000e-09
"v_SD24" 1.020000000000000e+00
"t_SD25" 6.225532130300000e-09
"v_SD25" 1.080000000000000e+00
"t_SD26" 6.232528421600000e-09
"v_SD26" 1.104000000000000e+00
"t_SD27" 6.242695244900000e-09
"v_SD27" 1.128000000000000e+00
"t_SD28" 6.252862068300000e-09
"v_SD28" 1.152000000000000e+00
"t_SD29" 6.279835373000000e-09
"v_SD29" 1.176000000000000e+00
"t_SD30" 1.050272064200000e-07
"v_SD30" 1.200000000000000e+00
"stimdata" 5.000000000000000e+00
"_paramsetIndex" 4.000000000000000e+00
"index" 4.000000000000000e+00
"ncxtd" 6.020000000000000e-09
"adrv_cap" 5.000000000000000e-12
"iptr" 1.300000000000000e-10
"load_cap" 5.000000000000000e-15
"t_D00" 0.000000000000000e+00
"v_D00" 0.000000000000000e+00
"t_D01" 3.000000000000000e-09
"v_D01" 0.000000000000000e+00
"t_D02" 3.010000000000000e-09
"v_D02" 0.000000000000000e+00
"t_D03" 6.010000000000000e-09
"v_D03" 0.000000000000000e+00
"t_D04" 6.020000000000000e-09
"v_D04" 0.000000000000000e+00
"t_D05" 9.020000000000001e-09
"v_D05" 0.000000000000000e+00
"t_D10" 0.000000000000000e+00
"v_D10" 1.200000000000000e+00
"t_D11" 3.000000000000000e-09
"v_D11" 1.200000000000000e+00
"t_D12" 3.010000000000000e-09
"v_D12" 1.200000000000000e+00
"t_D13" 6.010000000000000e-09
"v_D13" 1.200000000000000e+00
"t_D14" 6.020000000000000e-09
"v_D14" 1.200000000000000e+00
"t_D15" 9.020000000000001e-09
"v_D15" 1.200000000000000e+00
"t_SD0" 0.000000000000000e+00
"v_SD0" 1.200000000000000e+00
"t_SD1" 3.000000000000000e-09
"v_SD1" 1.200000000000000e+00
"t_SD2" 3.010000000000000e-09
"v_SD2" 0.000000000000000e+00
"t_SD3" 6.010000000000000e-09
"v_SD3" 0.000000000000000e+00
"t_SD4" 6.019999569200000e-09
"v_SD4" 0.000000000000000e+00
"t_SD5" 6.062092469000000e-09
"v_SD5" 2.400000000000000e-02
"t_SD6" 6.104185368900000e-09
"v_SD6" 4.800000000000000e-02
"t_SD7" 6.122826073800000e-09
"v_SD7" 7.199999999999999e-02
"t_SD8" 6.125495943800000e-09
"v_SD8" 9.600000000000000e-02
"t_SD9" 6.128165813700000e-09
"v_SD9" 1.200000000000000e-01
"t_SD10" 6.134223072900000e-09
"v_SD10" 1.800000000000000e-01
"t_SD11" 6.140219358200000e-09
"v_SD11" 2.400000000000000e-01
"t_SD12" 6.146284579100000e-09
"v_SD12" 3.000000000000000e-01
"t_SD13" 6.152453683100000e-09
"v_SD13" 3.600000000000000e-01
"t_SD14" 6.158726416400000e-09
"v_SD14" 4.200000000000000e-01
"t_SD15" 6.165143811500000e-09
"v_SD15" 4.800000000000000e-01
"t_SD16" 6.171774699700000e-09
"v_SD16" 5.400000000000000e-01
"t_SD17" 6.178507182100000e-09
"v_SD17" 6.000000000000000e-01
"t_SD18" 6.185679212000000e-09
"v_SD18" 6.600000000000000e-01
"t_SD19" 6.192851241800000e-09
"v_SD19" 7.200000000000000e-01
"t_SD20" 6.201171247900000e-09
"v_SD20" 7.800000000000000e-01
"t_SD21" 6.210016679800000e-09
"v_SD21" 8.400000000000000e-01
"t_SD22" 6.218862111700000e-09
"v_SD22" 9.000000000000000e-01
"t_SD23" 6.229080794400000e-09
"v_SD23" 9.600000000000000e-01
"t_SD24" 6.241813791100000e-09
"v_SD24" 1.020000000000000e+00
"t_SD25" 6.258185992500000e-09
"v_SD25" 1.080000000000000e+00
"t_SD26" 6.268505520300000e-09
"v_SD26" 1.104000000000000e+00
"t_SD27" 6.278891345100000e-09
"v_SD27" 1.128000000000000e+00
"t_SD28" 6.300816864500000e-09
"v_SD28" 1.152000000000000e+00
"t_SD29" 6.324624727500000e-09
"v_SD29" 1.176000000000000e+00
"t_SD30" 1.050111526000000e-07
"v_SD30" 1.200000000000000e+00
"stimdata" 6.000000000000000e+00
"_paramsetIndex" 5.000000000000000e+00
"index" 5.000000000000000e+00
"ncxtd" 6.020000000000000e-09
"adrv_cap" 5.000000000000000e-12
"iptr" 1.500000000000000e-10
"load_cap" 5.000000000000000e-15
"t_D00" 0.000000000000000e+00
"v_D00" 0.000000000000000e+00
"t_D01" 3.000000000000000e-09
"v_D01" 0.000000000000000e+00
"t_D02" 3.010000000000000e-09
"v_D02" 0.000000000000000e+00
"t_D03" 6.010000000000000e-09
"v_D03" 0.000000000000000e+00
"t_D04" 6.020000000000000e-09
"v_D04" 0.000000000000000e+00
"t_D05" 9.020000000000001e-09
"v_D05" 0.000000000000000e+00
"t_D10" 0.000000000000000e+00
"v_D10" 1.200000000000000e+00
"t_D11" 3.000000000000000e-09
"v_D11" 1.200000000000000e+00
"t_D12" 3.010000000000000e-09
"v_D12" 1.200000000000000e+00
"t_D13" 6.010000000000000e-09
"v_D13" 1.200000000000000e+00
"t_D14" 6.020000000000000e-09
"v_D14" 1.200000000000000e+00
"t_D15" 9.020000000000001e-09
"v_D15" 1.200000000000000e+00
"t_SD0" 0.000000000000000e+00
"v_SD0" 1.200000000000000e+00
"t_SD1" 3.000000000000000e-09
"v_SD1" 1.200000000000000e+00
"t_SD2" 3.010000000000000e-09
"v_SD2" 0.000000000000000e+00
"t_SD3" 6.010000000000000e-09
"v_SD3" 0.000000000000000e+00
"t_SD4" 6.019999483400000e-09
"v_SD4" 0.000000000000000e+00
"t_SD5" 6.070475111200000e-09
"v_SD5" 2.400000000000000e-02
"t_SD6" 6.120950738900000e-09
"v_SD6" 4.800000000000000e-02
"t_SD7" 6.124058085900000e-09
"v_SD7" 7.199999999999999e-02
"t_SD8" 6.127112784700000e-09
"v_SD8" 9.600000000000000e-02
"t_SD9" 6.130055990500000e-09
"v_SD9" 1.200000000000000e-01
"t_SD10" 6.136950326500000e-09
"v_SD10" 1.800000000000000e-01
"t_SD11" 6.143837334800000e-09
"v_SD11" 2.400000000000000e-01
"t_SD12" 6.150821870800000e-09
"v_SD12" 3.000000000000000e-01
"t_SD13" 6.157917696500000e-09
"v_SD13" 3.600000000000000e-01
"t_SD14" 6.165156315000000e-09
"v_SD14" 4.200000000000000e-01
"t_SD15" 6.172581399300000e-09
"v_SD15" 4.800000000000000e-01
"t_SD16" 6.180129834000000e-09
"v_SD16" 5.400000000000000e-01
