HEADER
"PSFversion" "1.00"
"simulator" "spectre"
"version" "10.1.1.164.isr11"
"date" "3:02:49 PM, Fri Oct 17, 2014"
"design" "* Spectre Timing Acquisition"
"analysis type" "tran"
"analysis name" "transient1-000_transient1"
"analysis description" "Transient Analysis `transient1-000_transient1': time = (0 s -> 39 ns)"
"xVecSorted" "ascending"
"tolerance.relative" 0.00100000
"start" 0.00000
"outputstart" 0.00000
"stop" 3.90000e-08
"step" 3.90000e-11
"maxstep" 7.80000e-10
"ic" "all"
"useprevic" "no"
"skipdc" "no"
"reltol" 0.00100000
"abstol(V)" 1.00000e-06
"abstol(I)" 1.00000e-12
"temp" 25.0000
"tnom" 27.0000
"tempeffects" "all"
"errpreset" "moderate"
"method" "traponly"
"lteratio" 3.50000
"relref" "sigglobal"
"cmin" 0.00000
"gmin" 1.00000e-12
TYPE
"sweep" FLOAT DOUBLE PROP(
"key" "sweep"
)
"Tau" FLOAT DOUBLE PROP(
"units" "N*m"
"key" "node"
"tolerance" 1.00000e-06
)
"Alpha" FLOAT DOUBLE PROP(
"units" "rads/s^2"
"key" "node"
"tolerance" 1.00000e-06
)
"Omega" FLOAT DOUBLE PROP(
"units" "rads/s"
"key" "node"
"tolerance" 1.00000e-06
)
"Theta" FLOAT DOUBLE PROP(
"units" "rads"
"key" "node"
"tolerance" 1.00000e-06
)
"F" FLOAT DOUBLE PROP(
"units" "N"
"key" "node"
"tolerance" 1.00000e-06
)
"Imp" FLOAT DOUBLE PROP(
"units" "m/s^3"
"key" "node"
"tolerance" 1.00000e-06
)
"Acc" FLOAT DOUBLE PROP(
"units" "m/s^2"
"key" "node"
"tolerance" 1.00000e-06
)
"Vel" FLOAT DOUBLE PROP(
"units" "m/s"
"key" "node"
"tolerance" 1.00000e-06
)
"Pos" FLOAT DOUBLE PROP(
"units" "m"
"key" "node"
"tolerance" 1.00000e-06
)
"Phi" FLOAT DOUBLE PROP(
"units" "Wb"
"key" "node"
"tolerance" 1.00000e-09
)
"Q" FLOAT DOUBLE PROP(
"units" "coul"
"key" "node"
"tolerance" 1.00000e-14
)
"V" FLOAT DOUBLE PROP(
"units" "V"
"key" "node"
"tolerance" 1.00000e-06
)
"I" FLOAT DOUBLE PROP(
"units" "A"
"key" "branch"
"tolerance" 1.00000e-12
)
"MMF" FLOAT DOUBLE PROP(
"units" "A*turn"
"key" "node"
"tolerance" 1.00000e-12
)
"Wb" FLOAT DOUBLE PROP(
"units" "Wb"
"key" "node"
"tolerance" 1.00000e-09
)
"Temp" FLOAT DOUBLE PROP(
"units" "C"
"key" "node"
"tolerance" 0.000100000
)
"Pwr" FLOAT DOUBLE PROP(
"units" "W"
"key" "node"
"tolerance" 1.00000e-09
)
"U" FLOAT DOUBLE PROP(
"units" ""
"key" "node"
"tolerance" 1.00000e-06
)
"V/Sec" FLOAT DOUBLE PROP(
"units" "V/s"
"key" "node"
"tolerance" 0.000100000
)
"I/Sec" FLOAT DOUBLE PROP(
"units" "A/s"
"key" "node"
"tolerance" 1.00000e-06
)
"1/Sec" FLOAT DOUBLE PROP(
"units" "1/s"
"key" "node"
"tolerance" 0.000100000
)
"HOD" FLOAT DOUBLE PROP(
"units" ""
"key" "node"
"tolerance" 0.0100000
)
"A" FLOAT DOUBLE PROP(
"key" "inst"
)
"W" FLOAT DOUBLE PROP(
"key" "inst"
)
SWEEP
"time" "sweep" PROP(
"sweep_direction" 0
"units" "s"
"plot" 0
"grid" 1
)
TRACE
"Vn_D0:v" "V" PROP(
"units" "V"
)
"Vn_D0:i" "A" PROP(
"units" "A"
)
"Vn_D0:pwr" "W" PROP(
"units" "W"
)
"Vn_D1:v" "V" PROP(
"units" "V"
)
"Vn_D1:i" "A" PROP(
"units" "A"
)
"Vn_D1:pwr" "W" PROP(
"units" "W"
)
"Vn_GND:v" "V" PROP(
"units" "V"
)
"Vn_GND:i" "A" PROP(
"units" "A"
)
"Vn_GND:pwr" "W" PROP(
"units" "W"
)
"Vn_SD:v" "V" PROP(
"units" "V"
)
"Vn_SD:i" "A" PROP(
"units" "A"
)
"Vn_SD:pwr" "W" PROP(
"units" "W"
)
"Vn_VDD:v" "V" PROP(
"units" "V"
)
"Vn_VDD:i" "A" PROP(
"units" "A"
)
"Vn_VDD:pwr" "W" PROP(
"units" "W"
)
"Vn_Z:v" "V" PROP(
"units" "V"
)
"Vn_Z:i" "A" PROP(
"units" "A"
)
"Vn_Z:pwr" "W" PROP(
"units" "W"
)
"n_Z" "V"
"n_D0" "V"
"n_D1" "V"
"n_SD" "V"
"Vn_D0:n" "I"
"Vn_D0:p" "I"
"Vn_D1:n" "I"
"Vn_D1:p" "I"
"Vn_GND:n" "I"
"Vn_GND:p" "I"
"Vn_SD:n" "I"
"Vn_SD:p" "I"
"Vn_VDD:n" "I"
"Vn_VDD:p" "I"
"Vn_Z:n" "I"
"Vn_Z:p" "I"
VALUE
"time" 0.000000000000000e+00
"Vn_D0:v" 0.000000000000000e+00
"Vn_D0:i" 6.510570961348576e-14
"Vn_D0:pwr" 0.000000000000000e+00
"Vn_D1:v" 0.000000000000000e+00
"Vn_D1:i" -4.653010742690437e-13
"Vn_D1:pwr" -0.000000000000000e+00
"Vn_GND:v" 0.000000000000000e+00
"Vn_GND:i" 6.075187591979712e-10
"Vn_GND:pwr" 0.000000000000000e+00
"Vn_SD:v" 0.000000000000000e+00
"Vn_SD:i" -9.790769334738837e-13
"Vn_SD:pwr" -0.000000000000000e+00
"Vn_VDD:v" 1.200000000000000e+00
"Vn_VDD:i" -6.061394868998710e-10
"Vn_VDD:pwr" -7.273673842798453e-10
"Vn_Z:v" 0.000000000000000e+00
"Vn_Z:i" 0.000000000000000e+00
"Vn_Z:pwr" 0.000000000000000e+00
"n_Z" 1.410791788769746e-06
"n_D0" 0.000000000000000e+00
"n_D1" 1.200000000000000e+00
"n_SD" 1.200000000000000e+00
"Vn_D0:n" -6.510570961348576e-14
"Vn_D0:p" 6.510570961348576e-14
"Vn_D1:n" 4.653010742690437e-13
"Vn_D1:p" -4.653010742690437e-13
"Vn_GND:n" -6.075187591979712e-10
"Vn_GND:p" 6.075187591979712e-10
"Vn_SD:n" 9.790769334738837e-13
"Vn_SD:p" -9.790769334738837e-13
"Vn_VDD:n" 6.061394868998710e-10
"Vn_VDD:p" -6.061394868998710e-10
"Vn_Z:n" 0.000000000000000e+00
"Vn_Z:p" 0.000000000000000e+00
"time" 3.900000000000000e-11
"Vn_D0:v" 0.000000000000000e+00
"Vn_D0:i" 6.510783104389051e-14
"Vn_D0:pwr" 0.000000000000000e+00
"Vn_D1:v" 0.000000000000000e+00
"Vn_D1:i" -4.653011232647483e-13
"Vn_D1:pwr" -0.000000000000000e+00
"Vn_GND:v" 0.000000000000000e+00
"Vn_GND:i" 6.075187602073259e-10
"Vn_GND:pwr" 0.000000000000000e+00
"Vn_SD:v" 0.000000000000000e+00
"Vn_SD:i" -9.790771876352696e-13
"Vn_SD:pwr" -0.000000000000000e+00
"Vn_VDD:v" 1.200000000000000e+00
"Vn_VDD:i" -6.061394875861246e-10
"Vn_VDD:pwr" -7.273673851033495e-10
"Vn_Z:v" 0.000000000000000e+00
"Vn_Z:i" -2.141345414883639e-18
"Vn_Z:pwr" -0.000000000000000e+00
"n_Z" 1.410791772067252e-06
"n_D0" 0.000000000000000e+00
"n_D1" 1.200000000000000e+00
"n_SD" 1.200000000000000e+00
"Vn_D0:n" -6.510783104389051e-14
"Vn_D0:p" 6.510783104389051e-14
"Vn_D1:n" 4.653011232647483e-13
"Vn_D1:p" -4.653011232647483e-13
"Vn_GND:n" -6.075187602073259e-10
"Vn_GND:p" 6.075187602073259e-10
"Vn_SD:n" 9.790771876352696e-13
"Vn_SD:p" -9.790771876352696e-13
"Vn_VDD:n" 6.061394875861246e-10
"Vn_VDD:p" -6.061394875861246e-10
"Vn_Z:n" 2.141345414883639e-18
"Vn_Z:p" -2.141345414883639e-18
"time" 1.170000000000000e-10
"Vn_D0:v" 0.000000000000000e+00
"Vn_D0:i" 6.510783512188158e-14
"Vn_D0:pwr" 0.000000000000000e+00
"Vn_D1:v" 0.000000000000000e+00
"Vn_D1:i" -4.653010938703089e-13
"Vn_D1:pwr" -0.000000000000000e+00
"Vn_GND:v" 0.000000000000000e+00
"Vn_GND:i" 6.075187578743800e-10
"Vn_GND:pwr" 0.000000000000000e+00
"Vn_SD:v" 0.000000000000000e+00
"Vn_SD:i" -9.790770043971136e-13
"Vn_SD:pwr" -0.000000000000000e+00
"Vn_VDD:v" 1.200000000000000e+00
"Vn_VDD:i" -6.061394870630179e-10
"Vn_VDD:pwr" -7.273673844756215e-10
"Vn_Z:v" 0.000000000000000e+00
"Vn_Z:i" -5.345040315547853e-19
"Vn_Z:pwr" -0.000000000000000e+00
"n_Z" 1.410791763728989e-06
"n_D0" 0.000000000000000e+00
"n_D1" 1.200000000000000e+00
"n_SD" 1.200000000000000e+00
"Vn_D0:n" -6.510783512188158e-14
"Vn_D0:p" 6.510783512188158e-14
"Vn_D1:n" 4.653010938703089e-13
"Vn_D1:p" -4.653010938703089e-13
"Vn_GND:n" -6.075187578743800e-10
"Vn_GND:p" 6.075187578743800e-10
"Vn_SD:n" 9.790770043971136e-13
"Vn_SD:p" -9.790770043971136e-13
"Vn_VDD:n" 6.061394870630179e-10
"Vn_VDD:p" -6.061394870630179e-10
"Vn_Z:n" 5.345040315547853e-19
"Vn_Z:p" -5.345040315547853e-19
"time" 2.730000000000000e-10
"Vn_D0:v" 0.000000000000000e+00
"Vn_D0:i" 6.510782925074369e-14
"Vn_D0:pwr" 0.000000000000000e+00
"Vn_D1:v" 0.000000000000000e+00
"Vn_D1:i" -4.653012207565121e-13
"Vn_D1:pwr" -0.000000000000000e+00
"Vn_GND:v" 0.000000000000000e+00
"Vn_GND:i" 6.075187557902394e-10
"Vn_GND:pwr" 0.000000000000000e+00
"Vn_SD:v" 0.000000000000000e+00
"Vn_SD:i" -9.790769049514035e-13
"Vn_SD:pwr" -0.000000000000000e+00
"Vn_VDD:v" 1.200000000000000e+00
"Vn_VDD:i" -6.061394879339628e-10
"Vn_VDD:pwr" -7.273673855207554e-10
"Vn_Z:v" 0.000000000000000e+00
"Vn_Z:i" 1.525156877048062e-19
"Vn_Z:pwr" 0.000000000000000e+00
"n_Z" 1.410791757769971e-06
"n_D0" 0.000000000000000e+00
"n_D1" 1.200000000000000e+00
"n_SD" 1.200000000000000e+00
"Vn_D0:n" -6.510782925074369e-14
"Vn_D0:p" 6.510782925074369e-14
"Vn_D1:n" 4.653012207565121e-13
"Vn_D1:p" -4.653012207565121e-13
"Vn_GND:n" -6.075187557902394e-10
"Vn_GND:p" 6.075187557902394e-10
"Vn_SD:n" 9.790769049514035e-13
"Vn_SD:p" -9.790769049514035e-13
"Vn_VDD:n" 6.061394879339628e-10
"Vn_VDD:p" -6.061394879339628e-10
"Vn_Z:n" -1.525156877048062e-19
"Vn_Z:p" 1.525156877048062e-19
"time" 5.850000000000002e-10
"Vn_D0:v" 0.000000000000000e+00
"Vn_D0:i" 6.510784202651077e-14
"Vn_D0:pwr" 0.000000000000000e+00
"Vn_D1:v" 0.000000000000000e+00
"Vn_D1:i" -4.653008923978349e-13
"Vn_D1:pwr" -0.000000000000000e+00
"Vn_GND:v" 0.000000000000000e+00
"Vn_GND:i" 6.075187582991174e-10
"Vn_GND:pwr" 0.000000000000000e+00
"Vn_SD:v" 0.000000000000000e+00
"Vn_SD:i" -9.790769312505606e-13
"Vn_SD:pwr" -0.000000000000000e+00
"Vn_VDD:v" 1.200000000000000e+00
"Vn_VDD:i" -6.061394855929122e-10
"Vn_VDD:pwr" -7.273673827114947e-10
"Vn_Z:v" 0.000000000000000e+00
"Vn_Z:i" 3.501883542511563e-20
"Vn_Z:pwr" 0.000000000000000e+00
"n_Z" 1.410791763621048e-06
"n_D0" 0.000000000000000e+00
"n_D1" 1.200000000000000e+00
"n_SD" 1.200000000000000e+00
"Vn_D0:n" -6.510784202651077e-14
"Vn_D0:p" 6.510784202651077e-14
"Vn_D1:n" 4.653008923978349e-13
"Vn_D1:p" -4.653008923978349e-13
"Vn_GND:n" -6.075187582991174e-10
"Vn_GND:p" 6.075187582991174e-10
"Vn_SD:n" 9.790769312505606e-13
"Vn_SD:p" -9.790769312505606e-13
"Vn_VDD:n" 6.061394855929122e-10
"Vn_VDD:p" -6.061394855929122e-10
"Vn_Z:n" -3.501883542511563e-20
"Vn_Z:p" 3.501883542511563e-20
"time" 1.209000000000000e-09
"Vn_D0:v" 0.000000000000000e+00
"Vn_D0:i" 6.510782307986143e-14
"Vn_D0:pwr" 0.000000000000000e+00
"Vn_D1:v" 0.000000000000000e+00
"Vn_D1:i" -4.653013214706473e-13
"Vn_D1:pwr" -0.000000000000000e+00
"Vn_GND:v" 0.000000000000000e+00
"Vn_GND:i" 6.075187560709515e-10
"Vn_GND:pwr" 0.000000000000000e+00
"Vn_SD:v" 0.000000000000000e+00
"Vn_SD:i" -9.790769437857054e-13
"Vn_SD:pwr" -0.000000000000000e+00
"Vn_VDD:v" 1.200000000000000e+00
"Vn_VDD:i" -6.061394886447011e-10
"Vn_VDD:pwr" -7.273673863736413e-10
"Vn_Z:v" 0.000000000000000e+00
"Vn_Z:i" -1.036917320218764e-19
"Vn_Z:pwr" -0.000000000000000e+00
"n_Z" 1.410791759335860e-06
"n_D0" 0.000000000000000e+00
"n_D1" 1.200000000000000e+00
"n_SD" 1.200000000000000e+00
"Vn_D0:n" -6.510782307986143e-14
"Vn_D0:p" 6.510782307986143e-14
"Vn_D1:n" 4.653013214706473e-13
"Vn_D1:p" -4.653013214706473e-13
"Vn_GND:n" -6.075187560709515e-10
"Vn_GND:p" 6.075187560709515e-10
"Vn_SD:n" 9.790769437857054e-13
"Vn_SD:p" -9.790769437857054e-13
"Vn_VDD:n" 6.061394886447011e-10
"Vn_VDD:p" -6.061394886447011e-10
"Vn_Z:n" 1.036917320218764e-19
"Vn_Z:p" -1.036917320218764e-19
"time" 1.989000000000000e-09
"Vn_D0:v" 0.000000000000000e+00
"Vn_D0:i" 6.510784227927135e-14
"Vn_D0:pwr" 0.000000000000000e+00
"Vn_D1:v" 0.000000000000000e+00
"Vn_D1:i" -4.653008267463132e-13
"Vn_D1:pwr" -0.000000000000000e+00
"Vn_GND:v" 0.000000000000000e+00
"Vn_GND:i" 6.075187580521898e-10
"Vn_GND:pwr" 0.000000000000000e+00
"Vn_SD:v" 0.000000000000000e+00
"Vn_SD:i" -9.790769161306895e-13
"Vn_SD:pwr" -0.000000000000000e+00
"Vn_VDD:v" 1.200000000000000e+00
"Vn_VDD:i" -6.061394851388270e-10
"Vn_VDD:pwr" -7.273673821665924e-10
"Vn_Z:v" 0.000000000000000e+00
"Vn_Z:i" 1.454066937379850e-19
"Vn_Z:pwr" 0.000000000000000e+00
"n_Z" 1.410791762589626e-06
"n_D0" 0.000000000000000e+00
"n_D1" 1.200000000000000e+00
"n_SD" 1.200000000000000e+00
"Vn_D0:n" -6.510784227927135e-14
"Vn_D0:p" 6.510784227927135e-14
"Vn_D1:n" 4.653008267463132e-13
"Vn_D1:p" -4.653008267463132e-13
"Vn_GND:n" -6.075187580521898e-10
"Vn_GND:p" 6.075187580521898e-10
"Vn_SD:n" 9.790769161306895e-13
"Vn_SD:p" -9.790769161306895e-13
"Vn_VDD:n" 6.061394851388270e-10
"Vn_VDD:p" -6.061394851388270e-10
"Vn_Z:n" -1.454066937379850e-19
"Vn_Z:p" 1.454066937379850e-19
"time" 2.769000000000001e-09
"Vn_D0:v" 0.000000000000000e+00
"Vn_D0:i" 6.510781799024775e-14
"Vn_D0:pwr" 0.000000000000000e+00
"Vn_D1:v" 0.000000000000000e+00
"Vn_D1:i" -4.653013560790735e-13
"Vn_D1:pwr" -0.000000000000000e+00
"Vn_GND:v" 0.000000000000000e+00
"Vn_GND:i" 6.075187539929460e-10
"Vn_GND:pwr" 0.000000000000000e+00
"Vn_SD:v" 0.000000000000000e+00
"Vn_SD:i" -9.790769653194677e-13
"Vn_SD:pwr" -0.000000000000000e+00
"Vn_VDD:v" 1.200000000000000e+00
"Vn_VDD:i" -6.061394889101759e-10
"Vn_VDD:pwr" -7.273673866922111e-10
"Vn_Z:v" 0.000000000000000e+00
"Vn_Z:i" -2.592823968908140e-19
"Vn_Z:pwr" -0.000000000000000e+00
"n_Z" 1.410791753707322e-06
"n_D0" 0.000000000000000e+00
"n_D1" 1.200000000000000e+00
"n_SD" 1.200000000000000e+00
"Vn_D0:n" -6.510781799024775e-14
"Vn_D0:p" 6.510781799024775e-14
"Vn_D1:n" 4.653013560790735e-13
"Vn_D1:p" -4.653013560790735e-13
"Vn_GND:n" -6.075187539929460e-10
"Vn_GND:p" 6.075187539929460e-10
"Vn_SD:n" 9.790769653194677e-13
"Vn_SD:p" -9.790769653194677e-13
"Vn_VDD:n" 6.061394889101759e-10
"Vn_VDD:p" -6.061394889101759e-10
"Vn_Z:n" 2.592823968908140e-19
"Vn_Z:p" -2.592823968908140e-19
"time" 3.000000000000000e-09
"Vn_D0:v" 0.000000000000000e+00
"Vn_D0:i" 6.510784261587948e-14
"Vn_D0:pwr" 0.000000000000000e+00
"Vn_D1:v" 0.000000000000000e+00
"Vn_D1:i" -4.653007853608024e-13
"Vn_D1:pwr" -0.000000000000000e+00
"Vn_GND:v" 0.000000000000000e+00
"Vn_GND:i" 6.075187575230821e-10
"Vn_GND:pwr" 0.000000000000000e+00
"Vn_SD:v" 0.000000000000000e+00
"Vn_SD:i" -9.790768559635246e-13
"Vn_SD:pwr" -0.000000000000000e+00
"Vn_VDD:v" 1.200000000000000e+00
"Vn_VDD:i" -6.061394847645143e-10
"Vn_VDD:pwr" -7.273673817174172e-10
"Vn_Z:v" 0.000000000000000e+00
"Vn_Z:i" 5.605359373413443e-19
"Vn_Z:pwr" 0.000000000000000e+00
"n_Z" 1.410791760666278e-06
"n_D0" 0.000000000000000e+00
"n_D1" 1.200000000000000e+00
"n_SD" 1.200000000000000e+00
"Vn_D0:n" -6.510784261587948e-14
"Vn_D0:p" 6.510784261587948e-14
"Vn_D1:n" 4.653007853608024e-13
"Vn_D1:p" -4.653007853608024e-13
"Vn_GND:n" -6.075187575230821e-10
"Vn_GND:p" 6.075187575230821e-10
"Vn_SD:n" 9.790768559635246e-13
"Vn_SD:p" -9.790768559635246e-13
"Vn_VDD:n" 6.061394847645143e-10
"Vn_VDD:p" -6.061394847645143e-10
"Vn_Z:n" -5.605359373413443e-19
"Vn_Z:p" 5.605359373413443e-19
"time" 3.000020850694444e-09
"Vn_D0:v" 0.000000000000000e+00
"Vn_D0:i" -6.871678921433585e-07
"Vn_D0:pwr" -0.000000000000000e+00
"Vn_D1:v" 0.000000000000000e+00
"Vn_D1:i" -1.273506158191339e-06
"Vn_D1:pwr" -0.000000000000000e+00
"Vn_GND:v" 0.000000000000000e+00
"Vn_GND:i" -7.687135475932507e-05
"Vn_GND:pwr" -0.000000000000000e+00
"Vn_SD:v" 0.000000000000000e+00
"Vn_SD:i" 1.963879391607234e-04
"Vn_SD:pwr" 0.000000000000000e+00
"Vn_VDD:v" 1.200000000000000e+00
"Vn_VDD:i" -1.081731126440573e-04
"Vn_VDD:pwr" -1.298077351728688e-04
"Vn_Z:v" 0.000000000000000e+00
"Vn_Z:i" -9.382797707138611e-06
"Vn_Z:pwr" -0.000000000000000e+00
"n_Z" -3.771677784400880e-05
"n_D0" 0.000000000000000e+00
"n_D1" 1.200000000000000e+00
"n_SD" 1.197497916666695e+00
"Vn_D0:n" 6.871678921433585e-07
"Vn_D0:p" -6.871678921433585e-07
"Vn_D1:n" 1.273506158191339e-06
"Vn_D1:p" -1.273506158191339e-06
"Vn_GND:n" 7.687135475932507e-05
"Vn_GND:p" -7.687135475932507e-05
"Vn_SD:n" -1.963879391607234e-04
"Vn_SD:p" 1.963879391607234e-04
"Vn_VDD:n" 1.081731126440573e-04
"Vn_VDD:p" -1.081731126440573e-04
"Vn_Z:n" 9.382797707138611e-06
"Vn_Z:p" -9.382797707138611e-06
"time" 3.000062552083333e-09
"Vn_D0:v" 0.000000000000000e+00
"Vn_D0:i" -1.979749046665758e-06
"Vn_D0:pwr" -0.000000000000000e+00
"Vn_D1:v" 0.000000000000000e+00
"Vn_D1:i" -3.417236596424664e-06
"Vn_D1:pwr" -0.000000000000000e+00
"Vn_GND:v" 0.000000000000000e+00
"Vn_GND:i" -7.247169427059531e-05
"Vn_GND:pwr" -0.000000000000000e+00
"Vn_SD:v" 0.000000000000000e+00
"Vn_SD:i" 2.094780303326542e-04
"Vn_SD:pwr" 0.000000000000000e+00
"Vn_VDD:v" 1.200000000000000e+00
"Vn_VDD:i" -1.073770530516572e-04
"Vn_VDD:pwr" -1.288524636619886e-04
"Vn_Z:v" 0.000000000000000e+00
"Vn_Z:i" -2.423229736709574e-05
"Vn_Z:pwr" -0.000000000000000e+00
"n_Z" -1.778963930651904e-04
"n_D0" 0.000000000000000e+00
"n_D1" 1.200000000000000e+00
"n_SD" 1.192493750000085e+00
"Vn_D0:n" 1.979749046665758e-06
"Vn_D0:p" -1.979749046665758e-06
"Vn_D1:n" 3.417236596424664e-06
"Vn_D1:p" -3.417236596424664e-06
"Vn_GND:n" 7.247169427059531e-05
"Vn_GND:p" -7.247169427059531e-05
"Vn_SD:n" -2.094780303326542e-04
"Vn_SD:p" 2.094780303326542e-04
"Vn_VDD:n" 1.073770530516572e-04
"Vn_VDD:p" -1.073770530516572e-04
"Vn_Z:n" 2.423229736709574e-05
"Vn_Z:p" -2.423229736709574e-05
"time" 3.000145954861109e-09
"Vn_D0:v" 0.000000000000000e+00
"Vn_D0:i" -4.033736790977621e-06
"Vn_D0:pwr" -0.000000000000000e+00
"Vn_D1:v" 0.000000000000000e+00
"Vn_D1:i" -5.714669789473198e-06
"Vn_D1:pwr" -0.000000000000000e+00
"Vn_GND:v" 0.000000000000000e+00
"Vn_GND:i" -6.917881230391351e-05
"Vn_GND:pwr" -0.000000000000000e+00
"Vn_SD:v" 0.000000000000000e+00
"Vn_SD:i" 2.228401118188731e-04
"Vn_SD:pwr" 0.000000000000000e+00
"Vn_VDD:v" 1.200000000000000e+00
"Vn_VDD:i" -1.057743455274093e-04
"Vn_VDD:pwr" -1.269292146328911e-04
"Vn_Z:v" 0.000000000000000e+00
"Vn_Z:i" -3.813854740735997e-05
"Vn_Z:pwr" -0.000000000000000e+00
"n_Z" -6.980865637129458e-04
"n_D0" 0.000000000000000e+00
"n_D1" 1.200000000000000e+00
"n_SD" 1.182485416666864e+00
"Vn_D0:n" 4.033736790977621e-06
"Vn_D0:p" -4.033736790977621e-06
"Vn_D1:n" 5.714669789473198e-06
"Vn_D1:p" -5.714669789473198e-06
"Vn_GND:n" 6.917881230391351e-05
"Vn_GND:p" -6.917881230391351e-05
"Vn_SD:n" -2.228401118188731e-04
"Vn_SD:p" 2.228401118188731e-04
"Vn_VDD:n" 1.057743455274093e-04
"Vn_VDD:p" -1.057743455274093e-04
"Vn_Z:n" 3.813854740735997e-05
"Vn_Z:p" -3.813854740735997e-05
"time" 3.000312760416663e-09
"Vn_D0:v" 0.000000000000000e+00
"Vn_D0:i" -6.420229052520018e-06
"Vn_D0:pwr" -0.000000000000000e+00
"Vn_D1:v" 0.000000000000000e+00
"Vn_D1:i" -6.614366351483869e-06
"Vn_D1:pwr" -0.000000000000000e+00
"Vn_GND:v" 0.000000000000000e+00
"Vn_GND:i" -7.008053361382172e-05
"Vn_GND:pwr" -0.000000000000000e+00
"Vn_SD:v" 0.000000000000000e+00
"Vn_SD:i" 2.322058314040206e-04
"Vn_SD:pwr" 0.000000000000000e+00
"Vn_VDD:v" 1.200000000000000e+00
"Vn_VDD:i" -1.053821098341068e-04
"Vn_VDD:pwr" -1.264585318009282e-04
"Vn_Z:v" 0.000000000000000e+00
"Vn_Z:i" -4.370859255180917e-05
"Vn_Z:pwr" -0.000000000000000e+00
"n_Z" -2.063342328849805e-03
"n_D0" 0.000000000000000e+00
"n_D1" 1.200000000000000e+00
"n_SD" 1.162468750000424e+00
"Vn_D0:n" 6.420229052520018e-06
"Vn_D0:p" -6.420229052520018e-06
"Vn_D1:n" 6.614366351483869e-06
"Vn_D1:p" -6.614366351483869e-06
"Vn_GND:n" 7.008053361382172e-05
"Vn_GND:p" -7.008053361382172e-05
"Vn_SD:n" -2.322058314040206e-04
"Vn_SD:p" 2.322058314040206e-04
"Vn_VDD:n" 1.053821098341068e-04
"Vn_VDD:p" -1.053821098341068e-04
"Vn_Z:n" 4.370859255180917e-05
"Vn_Z:p" -4.370859255180917e-05
"time" 3.000565861772966e-09
"Vn_D0:v" 0.000000000000000e+00
"Vn_D0:i" -7.637758672207895e-06
"Vn_D0:pwr" -0.000000000000000e+00
"Vn_D1:v" 0.000000000000000e+00
"Vn_D1:i" -5.552093162837167e-06
"Vn_D1:pwr" -0.000000000000000e+00
"Vn_GND:v" 0.000000000000000e+00
"Vn_GND:i" -7.421268656312245e-05
"Vn_GND:pwr" -0.000000000000000e+00
"Vn_SD:v" 0.000000000000000e+00
"Vn_SD:i" 2.359598855895939e-04
"Vn_SD:pwr" 0.000000000000000e+00
"Vn_VDD:v" 1.200000000000000e+00
"Vn_VDD:i" -1.049874207369964e-04
"Vn_VDD:pwr" -1.259849048843957e-04
"Vn_Z:v" 0.000000000000000e+00
"Vn_Z:i" -4.356992645470058e-05
"Vn_Z:pwr" -0.000000000000000e+00
"n_Z" -4.272373482511384e-03
"n_D0" 0.000000000000000e+00
"n_D1" 1.200000000000000e+00
"n_SD" 1.132096587244132e+00
"Vn_D0:n" 7.637758672207895e-06
"Vn_D0:p" -7.637758672207895e-06
"Vn_D1:n" 5.552093162837167e-06
"Vn_D1:p" -5.552093162837167e-06
"Vn_GND:n" 7.421268656312245e-05
"Vn_GND:p" -7.421268656312245e-05
"Vn_SD:n" -2.359598855895939e-04
"Vn_SD:p" 2.359598855895939e-04
"Vn_VDD:n" 1.049874207369964e-04
"Vn_VDD:p" -1.049874207369964e-04
"Vn_Z:n" 4.356992645470058e-05
"Vn_Z:p" -4.356992645470058e-05
"time" 3.000933643203660e-09
"Vn_D0:v" 0.000000000000000e+00
"Vn_D0:i" -7.675434274162123e-06
"Vn_D0:pwr" -0.000000000000000e+00
"Vn_D1:v" 0.000000000000000e+00
"Vn_D1:i" -4.240480288142950e-06
"Vn_D1:pwr" -0.000000000000000e+00
"Vn_GND:v" 0.000000000000000e+00
"Vn_GND:i" -7.939509568466429e-05
"Vn_GND:pwr" -0.000000000000000e+00
"Vn_SD:v" 0.000000000000000e+00
"Vn_SD:i" 2.382197813021522e-04
"Vn_SD:pwr" 0.000000000000000e+00
"Vn_VDD:v" 1.200000000000000e+00
"Vn_VDD:i" -1.030167467710692e-04
"Vn_VDD:pwr" -1.236200961252831e-04
"Vn_Z:v" 0.000000000000000e+00
