HEADER
"PSFversion" "1.00"
"simulator" "spectre"
"version" "10.1.1.164.isr11"
"date" "3:01:57 PM, Fri Oct 17, 2014"
"design" "* Spectre Timing Acquisition"
"analysis type" "meas_foreach"
"analysis name" "transient1_meas"
"analysis description" "Foreach parent"
"analysis title" "Foreach of paramSet stimdata parent"
"xVecSorted" "unsorted"
"tolerance.relative" 0.00100000
TYPE
"sweep" FLOAT DOUBLE PROP(
"key" "sweep"
)
"Tau" FLOAT DOUBLE PROP(
"units" "N*m"
"key" "node"
"tolerance" 1.00000e-06
)
"Alpha" FLOAT DOUBLE PROP(
"units" "rads/s^2"
"key" "node"
"tolerance" 1.00000e-06
)
"Omega" FLOAT DOUBLE PROP(
"units" "rads/s"
"key" "node"
"tolerance" 1.00000e-06
)
"Theta" FLOAT DOUBLE PROP(
"units" "rads"
"key" "node"
"tolerance" 1.00000e-06
)
"F" FLOAT DOUBLE PROP(
"units" "N"
"key" "node"
"tolerance" 1.00000e-06
)
"Imp" FLOAT DOUBLE PROP(
"units" "m/s^3"
"key" "node"
"tolerance" 1.00000e-06
)
"Acc" FLOAT DOUBLE PROP(
"units" "m/s^2"
"key" "node"
"tolerance" 1.00000e-06
)
"Vel" FLOAT DOUBLE PROP(
"units" "m/s"
"key" "node"
"tolerance" 1.00000e-06
)
"Pos" FLOAT DOUBLE PROP(
"units" "m"
"key" "node"
"tolerance" 1.00000e-06
)
"Phi" FLOAT DOUBLE PROP(
"units" "Wb"
"key" "node"
"tolerance" 1.00000e-09
)
"Q" FLOAT DOUBLE PROP(
"units" "coul"
"key" "node"
"tolerance" 1.00000e-14
)
"V" FLOAT DOUBLE PROP(
"units" "V"
"key" "node"
"tolerance" 1.00000e-06
)
"I" FLOAT DOUBLE PROP(
"units" "A"
"key" "branch"
"tolerance" 1.00000e-12
)
"MMF" FLOAT DOUBLE PROP(
"units" "A*turn"
"key" "node"
"tolerance" 1.00000e-12
)
"Wb" FLOAT DOUBLE PROP(
"units" "Wb"
"key" "node"
"tolerance" 1.00000e-09
)
"Temp" FLOAT DOUBLE PROP(
"units" "C"
"key" "node"
"tolerance" 0.000100000
)
"Pwr" FLOAT DOUBLE PROP(
"units" "W"
"key" "node"
"tolerance" 1.00000e-09
)
"U" FLOAT DOUBLE PROP(
"units" ""
"key" "node"
"tolerance" 1.00000e-06
)
"V/Sec" FLOAT DOUBLE PROP(
"units" "V/s"
"key" "node"
"tolerance" 0.000100000
)
"I/Sec" FLOAT DOUBLE PROP(
"units" "A/s"
"key" "node"
"tolerance" 1.00000e-06
)
"1/Sec" FLOAT DOUBLE PROP(
"units" "1/s"
"key" "node"
"tolerance" 0.000100000
)
"HOD" FLOAT DOUBLE PROP(
"units" ""
"key" "node"
"tolerance" 0.0100000
)
SWEEP
"stimdata" "sweep" PROP(
"sweep_direction" 0
"units" "real"
"plot" 0
"grid" 1
)
TRACE
"_paramsetIndex" "sweep"
"index" "sweep"
"ncxtd" "sweep"
"adrv_cap" "sweep"
"iptr" "sweep"
"load_cap" "sweep"
"t_D10" "sweep"
"v_D10" "sweep"
"t_D11" "sweep"
"v_D11" "sweep"
"t_D12" "sweep"
"v_D12" "sweep"
"t_D13" "sweep"
"v_D13" "sweep"
"t_D14" "sweep"
"v_D14" "sweep"
"t_D15" "sweep"
"v_D15" "sweep"
"t_D16" "sweep"
"v_D16" "sweep"
"t_D17" "sweep"
"v_D17" "sweep"
"t_D18" "sweep"
"v_D18" "sweep"
"t_D19" "sweep"
"v_D19" "sweep"
"t_D110" "sweep"
"v_D110" "sweep"
"t_D111" "sweep"
"v_D111" "sweep"
"t_D112" "sweep"
"v_D112" "sweep"
"t_D113" "sweep"
"v_D113" "sweep"
"t_D114" "sweep"
"v_D114" "sweep"
"t_D115" "sweep"
"v_D115" "sweep"
"t_D116" "sweep"
"v_D116" "sweep"
"t_D117" "sweep"
"v_D117" "sweep"
"t_D118" "sweep"
"v_D118" "sweep"
"t_D119" "sweep"
"v_D119" "sweep"
"t_D120" "sweep"
"v_D120" "sweep"
"t_D121" "sweep"
"v_D121" "sweep"
"t_D122" "sweep"
"v_D122" "sweep"
"t_D123" "sweep"
"v_D123" "sweep"
"t_D124" "sweep"
"v_D124" "sweep"
"t_D125" "sweep"
"v_D125" "sweep"
"t_D126" "sweep"
"v_D126" "sweep"
"t_D127" "sweep"
"v_D127" "sweep"
"t_D128" "sweep"
"v_D128" "sweep"
"t_D129" "sweep"
"v_D129" "sweep"
"t_D130" "sweep"
"v_D130" "sweep"
"t_SD0" "sweep"
"v_SD0" "sweep"
"t_SD1" "sweep"
"v_SD1" "sweep"
"t_SD2" "sweep"
"v_SD2" "sweep"
"t_SD3" "sweep"
"v_SD3" "sweep"
"t_SD4" "sweep"
"v_SD4" "sweep"
"t_SD5" "sweep"
"v_SD5" "sweep"
VALUE
"stimdata" 1.000000000000000e+00
"_paramsetIndex" 0.000000000000000e+00
"index" 0.000000000000000e+00
"ncxtd" 6.020000000000000e-09
"adrv_cap" 5.000000000000000e-12
"iptr" 5.000000000000000e-11
"load_cap" 3.800000000000000e-15
"t_D10" 0.000000000000000e+00
"v_D10" 0.000000000000000e+00
"t_D11" 3.000000000000000e-09
"v_D11" 0.000000000000000e+00
"t_D12" 3.010000000000000e-09
"v_D12" 0.000000000000000e+00
"t_D13" 6.010000000000000e-09
"v_D13" 0.000000000000000e+00
"t_D14" 6.019999795400000e-09
"v_D14" 0.000000000000000e+00
"t_D15" 6.039988555300000e-09
"v_D15" 2.400000000000000e-02
"t_D16" 6.059977315100000e-09
"v_D16" 4.800000000000000e-02
"t_D17" 6.079966075000000e-09
"v_D17" 7.199999999999999e-02
"t_D18" 6.099954834900000e-09
"v_D18" 9.600000000000000e-02
"t_D19" 6.118888714300000e-09
"v_D19" 1.200000000000000e-01
"t_D110" 6.121858998100000e-09
"v_D110" 1.800000000000000e-01
"t_D111" 6.124511226100000e-09
"v_D111" 2.400000000000000e-01
"t_D112" 6.127021069500000e-09
"v_D112" 3.000000000000000e-01
"t_D113" 6.129486018600000e-09
"v_D113" 3.600000000000000e-01
"t_D114" 6.131904149600000e-09
"v_D114" 4.200000000000000e-01
"t_D115" 6.134348480000000e-09
"v_D115" 4.800000000000000e-01
"t_D116" 6.136804054700000e-09
"v_D116" 5.400000000000000e-01
"t_D117" 6.139347723200000e-09
"v_D117" 6.000000000000000e-01
"t_D118" 6.141913187800000e-09
"v_D118" 6.600000000000000e-01
"t_D119" 6.144691349900000e-09
"v_D119" 7.200000000000000e-01
"t_D120" 6.147499613800000e-09
"v_D120" 7.800000000000000e-01
"t_D121" 6.150518645700000e-09
"v_D121" 8.400000000000000e-01
"t_D122" 6.153916042200000e-09
"v_D122" 9.000000000000000e-01
"t_D123" 6.157766127700000e-09
"v_D123" 9.600000000000000e-01
"t_D124" 6.162712641600000e-09
"v_D124" 1.020000000000000e+00
"t_D125" 6.168886041100000e-09
"v_D125" 1.080000000000000e+00
"t_D126" 6.172644289800000e-09
"v_D126" 1.104000000000000e+00
"t_D127" 6.177175199900000e-09
"v_D127" 1.128000000000000e+00
"t_D128" 6.185268566200000e-09
"v_D128" 1.152000000000000e+00
"t_D129" 6.193361932400000e-09
"v_D129" 1.176000000000000e+00
"t_D130" 1.050145932800000e-07
"v_D130" 1.200000000000000e+00
"t_SD0" 0.000000000000000e+00
"v_SD0" 1.200000000000000e+00
"t_SD1" 3.000000000000000e-09
"v_SD1" 1.200000000000000e+00
"t_SD2" 3.010000000000000e-09
"v_SD2" 1.200000000000000e+00
"t_SD3" 6.010000000000000e-09
"v_SD3" 1.200000000000000e+00
"t_SD4" 6.020000000000000e-09
"v_SD4" 1.200000000000000e+00
"t_SD5" 9.020000000000001e-09
"v_SD5" 1.200000000000000e+00
"stimdata" 2.000000000000000e+00
"_paramsetIndex" 1.000000000000000e+00
"index" 1.000000000000000e+00
"ncxtd" 6.020000000000000e-09
"adrv_cap" 5.000000000000000e-12
"iptr" 5.000000000000000e-11
"load_cap" 4.100000000000000e-15
"t_D10" 0.000000000000000e+00
"v_D10" 0.000000000000000e+00
"t_D11" 3.000000000000000e-09
"v_D11" 0.000000000000000e+00
"t_D12" 3.010000000000000e-09
"v_D12" 0.000000000000000e+00
"t_D13" 6.010000000000000e-09
"v_D13" 0.000000000000000e+00
"t_D14" 6.019999795400000e-09
"v_D14" 0.000000000000000e+00
"t_D15" 6.039988555300000e-09
"v_D15" 2.400000000000000e-02
"t_D16" 6.059977315100000e-09
"v_D16" 4.800000000000000e-02
"t_D17" 6.079966075000000e-09
"v_D17" 7.199999999999999e-02
"t_D18" 6.099954834900000e-09
"v_D18" 9.600000000000000e-02
"t_D19" 6.118888714300000e-09
"v_D19" 1.200000000000000e-01
"t_D110" 6.121858998100000e-09
"v_D110" 1.800000000000000e-01
"t_D111" 6.124511226100000e-09
"v_D111" 2.400000000000000e-01
"t_D112" 6.127021069500000e-09
"v_D112" 3.000000000000000e-01
"t_D113" 6.129486018600000e-09
"v_D113" 3.600000000000000e-01
"t_D114" 6.131904149600000e-09
"v_D114" 4.200000000000000e-01
"t_D115" 6.134348480000000e-09
"v_D115" 4.800000000000000e-01
"t_D116" 6.136804054700000e-09
"v_D116" 5.400000000000000e-01
"t_D117" 6.139347723200000e-09
"v_D117" 6.000000000000000e-01
"t_D118" 6.141913187800000e-09
"v_D118" 6.600000000000000e-01
"t_D119" 6.144691349900000e-09
"v_D119" 7.200000000000000e-01
"t_D120" 6.147499613800000e-09
"v_D120" 7.800000000000000e-01
"t_D121" 6.150518645700000e-09
"v_D121" 8.400000000000000e-01
"t_D122" 6.153916042200000e-09
"v_D122" 9.000000000000000e-01
"t_D123" 6.157766127700000e-09
"v_D123" 9.600000000000000e-01
"t_D124" 6.162712641600000e-09
"v_D124" 1.020000000000000e+00
"t_D125" 6.168886041100000e-09
"v_D125" 1.080000000000000e+00
"t_D126" 6.172644289800000e-09
"v_D126" 1.104000000000000e+00
"t_D127" 6.177175199900000e-09
"v_D127" 1.128000000000000e+00
"t_D128" 6.185268566200000e-09
"v_D128" 1.152000000000000e+00
"t_D129" 6.193361932400000e-09
"v_D129" 1.176000000000000e+00
"t_D130" 1.050145932800000e-07
"v_D130" 1.200000000000000e+00
"t_SD0" 0.000000000000000e+00
"v_SD0" 1.200000000000000e+00
"t_SD1" 3.000000000000000e-09
"v_SD1" 1.200000000000000e+00
"t_SD2" 3.010000000000000e-09
"v_SD2" 1.200000000000000e+00
"t_SD3" 6.010000000000000e-09
"v_SD3" 1.200000000000000e+00
"t_SD4" 6.020000000000000e-09
"v_SD4" 1.200000000000000e+00
"t_SD5" 9.020000000000001e-09
"v_SD5" 1.200000000000000e+00
"stimdata" 3.000000000000000e+00
"_paramsetIndex" 2.000000000000000e+00
"index" 2.000000000000000e+00
"ncxtd" 6.020000000000000e-09
"adrv_cap" 5.000000000000000e-12
"iptr" 5.000000000000000e-11
"load_cap" 4.400000000000000e-15
"t_D10" 0.000000000000000e+00
"v_D10" 0.000000000000000e+00
"t_D11" 3.000000000000000e-09
"v_D11" 0.000000000000000e+00
"t_D12" 3.010000000000000e-09
"v_D12" 0.000000000000000e+00
"t_D13" 6.010000000000000e-09
"v_D13" 0.000000000000000e+00
"t_D14" 6.019999795400000e-09
"v_D14" 0.000000000000000e+00
"t_D15" 6.039988555300000e-09
"v_D15" 2.400000000000000e-02
"t_D16" 6.059977315100000e-09
"v_D16" 4.800000000000000e-02
"t_D17" 6.079966075000000e-09
"v_D17" 7.199999999999999e-02
"t_D18" 6.099954834900000e-09
"v_D18" 9.600000000000000e-02
"t_D19" 6.118888714300000e-09
"v_D19" 1.200000000000000e-01
"t_D110" 6.121858998100000e-09
"v_D110" 1.800000000000000e-01
"t_D111" 6.124511226100000e-09
"v_D111" 2.400000000000000e-01
"t_D112" 6.127021069500000e-09
"v_D112" 3.000000000000000e-01
"t_D113" 6.129486018600000e-09
"v_D113" 3.600000000000000e-01
"t_D114" 6.131904149600000e-09
"v_D114" 4.200000000000000e-01
"t_D115" 6.134348480000000e-09
"v_D115" 4.800000000000000e-01
"t_D116" 6.136804054700000e-09
"v_D116" 5.400000000000000e-01
"t_D117" 6.139347723200000e-09
"v_D117" 6.000000000000000e-01
"t_D118" 6.141913187800000e-09
"v_D118" 6.600000000000000e-01
"t_D119" 6.144691349900000e-09
"v_D119" 7.200000000000000e-01
"t_D120" 6.147499613800000e-09
"v_D120" 7.800000000000000e-01
"t_D121" 6.150518645700000e-09
"v_D121" 8.400000000000000e-01
"t_D122" 6.153916042200000e-09
"v_D122" 9.000000000000000e-01
"t_D123" 6.157766127700000e-09
"v_D123" 9.600000000000000e-01
"t_D124" 6.162712641600000e-09
"v_D124" 1.020000000000000e+00
"t_D125" 6.168886041100000e-09
"v_D125" 1.080000000000000e+00
"t_D126" 6.172644289800000e-09
"v_D126" 1.104000000000000e+00
"t_D127" 6.177175199900000e-09
"v_D127" 1.128000000000000e+00
"t_D128" 6.185268566200000e-09
"v_D128" 1.152000000000000e+00
"t_D129" 6.193361932400000e-09
"v_D129" 1.176000000000000e+00
"t_D130" 1.050145932800000e-07
"v_D130" 1.200000000000000e+00
"t_SD0" 0.000000000000000e+00
"v_SD0" 1.200000000000000e+00
"t_SD1" 3.000000000000000e-09
"v_SD1" 1.200000000000000e+00
"t_SD2" 3.010000000000000e-09
"v_SD2" 1.200000000000000e+00
"t_SD3" 6.010000000000000e-09
"v_SD3" 1.200000000000000e+00
"t_SD4" 6.020000000000000e-09
"v_SD4" 1.200000000000000e+00
"t_SD5" 9.020000000000001e-09
"v_SD5" 1.200000000000000e+00
"stimdata" 4.000000000000000e+00
"_paramsetIndex" 3.000000000000000e+00
"index" 3.000000000000000e+00
"ncxtd" 6.020000000000000e-09
"adrv_cap" 5.000000000000000e-12
"iptr" 5.000000000000000e-11
"load_cap" 4.700000000000000e-15
"t_D10" 0.000000000000000e+00
"v_D10" 0.000000000000000e+00
"t_D11" 3.000000000000000e-09
"v_D11" 0.000000000000000e+00
"t_D12" 3.010000000000000e-09
"v_D12" 0.000000000000000e+00
"t_D13" 6.010000000000000e-09
"v_D13" 0.000000000000000e+00
"t_D14" 6.019999795400000e-09
"v_D14" 0.000000000000000e+00
"t_D15" 6.039988555300000e-09
"v_D15" 2.400000000000000e-02
"t_D16" 6.059977315100000e-09
"v_D16" 4.800000000000000e-02
"t_D17" 6.079966075000000e-09
"v_D17" 7.199999999999999e-02
"t_D18" 6.099954834900000e-09
"v_D18" 9.600000000000000e-02
"t_D19" 6.118888714300000e-09
"v_D19" 1.200000000000000e-01
"t_D110" 6.121858998100000e-09
"v_D110" 1.800000000000000e-01
"t_D111" 6.124511226100000e-09
"v_D111" 2.400000000000000e-01
"t_D112" 6.127021069500000e-09
"v_D112" 3.000000000000000e-01
"t_D113" 6.129486018600000e-09
"v_D113" 3.600000000000000e-01
"t_D114" 6.131904149600000e-09
"v_D114" 4.200000000000000e-01
"t_D115" 6.134348480000000e-09
"v_D115" 4.800000000000000e-01
"t_D116" 6.136804054700000e-09
"v_D116" 5.400000000000000e-01
"t_D117" 6.139347723200000e-09
"v_D117" 6.000000000000000e-01
"t_D118" 6.141913187800000e-09
"v_D118" 6.600000000000000e-01
"t_D119" 6.144691349900000e-09
"v_D119" 7.200000000000000e-01
"t_D120" 6.147499613800000e-09
"v_D120" 7.800000000000000e-01
"t_D121" 6.150518645700000e-09
"v_D121" 8.400000000000000e-01
"t_D122" 6.153916042200000e-09
"v_D122" 9.000000000000000e-01
"t_D123" 6.157766127700000e-09
"v_D123" 9.600000000000000e-01
"t_D124" 6.162712641600000e-09
"v_D124" 1.020000000000000e+00
"t_D125" 6.168886041100000e-09
"v_D125" 1.080000000000000e+00
"t_D126" 6.172644289800000e-09
"v_D126" 1.104000000000000e+00
"t_D127" 6.177175199900000e-09
"v_D127" 1.128000000000000e+00
"t_D128" 6.185268566200000e-09
"v_D128" 1.152000000000000e+00
"t_D129" 6.193361932400000e-09
"v_D129" 1.176000000000000e+00
"t_D130" 1.050145932800000e-07
"v_D130" 1.200000000000000e+00
"t_SD0" 0.000000000000000e+00
"v_SD0" 1.200000000000000e+00
"t_SD1" 3.000000000000000e-09
"v_SD1" 1.200000000000000e+00
"t_SD2" 3.010000000000000e-09
"v_SD2" 1.200000000000000e+00
"t_SD3" 6.010000000000000e-09
"v_SD3" 1.200000000000000e+00
"t_SD4" 6.020000000000000e-09
"v_SD4" 1.200000000000000e+00
"t_SD5" 9.020000000000001e-09
"v_SD5" 1.200000000000000e+00
"stimdata" 5.000000000000000e+00
"_paramsetIndex" 4.000000000000000e+00
"index" 4.000000000000000e+00
"ncxtd" 6.020000000000000e-09
"adrv_cap" 5.000000000000000e-12
"iptr" 5.000000000000000e-11
"load_cap" 5.000000000000000e-15
"t_D10" 0.000000000000000e+00
"v_D10" 0.000000000000000e+00
"t_D11" 3.000000000000000e-09
"v_D11" 0.000000000000000e+00
"t_D12" 3.010000000000000e-09
"v_D12" 0.000000000000000e+00
"t_D13" 6.010000000000000e-09
"v_D13" 0.000000000000000e+00
"t_D14" 6.019999795400000e-09
"v_D14" 0.000000000000000e+00
"t_D15" 6.039988555300000e-09
"v_D15" 2.400000000000000e-02
"t_D16" 6.059977315100000e-09
"v_D16" 4.800000000000000e-02
"t_D17" 6.079966075000000e-09
"v_D17" 7.199999999999999e-02
"t_D18" 6.099954834900000e-09
"v_D18" 9.600000000000000e-02
"t_D19" 6.118888714300000e-09
"v_D19" 1.200000000000000e-01
"t_D110" 6.121858998100000e-09
"v_D110" 1.800000000000000e-01
"t_D111" 6.124511226100000e-09
"v_D111" 2.400000000000000e-01
"t_D112" 6.127021069500000e-09
"v_D112" 3.000000000000000e-01
"t_D113" 6.129486018600000e-09
"v_D113" 3.600000000000000e-01
"t_D114" 6.131904149600000e-09
"v_D114" 4.200000000000000e-01
"t_D115" 6.134348480000000e-09
"v_D115" 4.800000000000000e-01
"t_D116" 6.136804054700000e-09
"v_D116" 5.400000000000000e-01
"t_D117" 6.139347723200000e-09
"v_D117" 6.000000000000000e-01
"t_D118" 6.141913187800000e-09
"v_D118" 6.600000000000000e-01
"t_D119" 6.144691349900000e-09
"v_D119" 7.200000000000000e-01
"t_D120" 6.147499613800000e-09
"v_D120" 7.800000000000000e-01
"t_D121" 6.150518645700000e-09
"v_D121" 8.400000000000000e-01
"t_D122" 6.153916042200000e-09
"v_D122" 9.000000000000000e-01
"t_D123" 6.157766127700000e-09
"v_D123" 9.600000000000000e-01
"t_D124" 6.162712641600000e-09
"v_D124" 1.020000000000000e+00
"t_D125" 6.168886041100000e-09
"v_D125" 1.080000000000000e+00
"t_D126" 6.172644289800000e-09
"v_D126" 1.104000000000000e+00
"t_D127" 6.177175199900000e-09
"v_D127" 1.128000000000000e+00
"t_D128" 6.185268566200000e-09
"v_D128" 1.152000000000000e+00
"t_D129" 6.193361932400000e-09
"v_D129" 1.176000000000000e+00
"t_D130" 1.050145932800000e-07
"v_D130" 1.200000000000000e+00
"t_SD0" 0.000000000000000e+00
"v_SD0" 1.200000000000000e+00
"t_SD1" 3.000000000000000e-09
"v_SD1" 1.200000000000000e+00
"t_SD2" 3.010000000000000e-09
"v_SD2" 1.200000000000000e+00
"t_SD3" 6.010000000000000e-09
"v_SD3" 1.200000000000000e+00
"t_SD4" 6.020000000000000e-09
"v_SD4" 1.200000000000000e+00
"t_SD5" 9.020000000000001e-09
"v_SD5" 1.200000000000000e+00
"stimdata" 6.000000000000000e+00
"_paramsetIndex" 5.000000000000000e+00
"index" 5.000000000000000e+00
"ncxtd" 6.020000000000000e-09
"adrv_cap" 5.000000000000000e-12
"iptr" 5.000000000000000e-11
"load_cap" 5.300000000000000e-15
"t_D10" 0.000000000000000e+00
"v_D10" 0.000000000000000e+00
"t_D11" 3.000000000000000e-09
"v_D11" 0.000000000000000e+00
"t_D12" 3.010000000000000e-09
"v_D12" 0.000000000000000e+00
"t_D13" 6.010000000000000e-09
"v_D13" 0.000000000000000e+00
"t_D14" 6.019999795400000e-09
"v_D14" 0.000000000000000e+00
"t_D15" 6.039988555300000e-09
"v_D15" 2.400000000000000e-02
"t_D16" 6.059977315100000e-09
"v_D16" 4.800000000000000e-02
"t_D17" 6.079966075000000e-09
"v_D17" 7.199999999999999e-02
"t_D18" 6.099954834900000e-09
"v_D18" 9.600000000000000e-02
"t_D19" 6.118888714300000e-09
"v_D19" 1.200000000000000e-01
"t_D110" 6.121858998100000e-09
"v_D110" 1.800000000000000e-01
"t_D111" 6.124511226100000e-09
"v_D111" 2.400000000000000e-01
"t_D112" 6.127021069500000e-09
"v_D112" 3.000000000000000e-01
"t_D113" 6.129486018600000e-09
"v_D113" 3.600000000000000e-01
"t_D114" 6.131904149600000e-09
"v_D114" 4.200000000000000e-01
"t_D115" 6.134348480000000e-09
"v_D115" 4.800000000000000e-01
"t_D116" 6.136804054700000e-09
"v_D116" 5.400000000000000e-01
"t_D117" 6.139347723200000e-09
"v_D117" 6.000000000000000e-01
"t_D118" 6.141913187800000e-09
"v_D118" 6.600000000000000e-01
"t_D119" 6.144691349900000e-09
"v_D119" 7.200000000000000e-01
"t_D120" 6.147499613800000e-09
"v_D120" 7.800000000000000e-01
"t_D121" 6.150518645700000e-09
"v_D121" 8.400000000000000e-01
"t_D122" 6.153916042200000e-09
"v_D122" 9.000000000000000e-01
"t_D123" 6.157766127700000e-09
"v_D123" 9.600000000000000e-01
"t_D124" 6.162712641600000e-09
"v_D124" 1.020000000000000e+00
"t_D125" 6.168886041100000e-09
"v_D125" 1.080000000000000e+00
"t_D126" 6.172644289800000e-09
"v_D126" 1.104000000000000e+00
"t_D127" 6.177175199900000e-09
"v_D127" 1.128000000000000e+00
"t_D128" 6.185268566200000e-09
"v_D128" 1.152000000000000e+00
"t_D129" 6.193361932400000e-09
"v_D129" 1.176000000000000e+00
"t_D130" 1.050145932800000e-07
"v_D130" 1.200000000000000e+00
"t_SD0" 0.000000000000000e+00
"v_SD0" 1.200000000000000e+00
"t_SD1" 3.000000000000000e-09
"v_SD1" 1.200000000000000e+00
"t_SD2" 3.010000000000000e-09
"v_SD2" 1.200000000000000e+00
"t_SD3" 6.010000000000000e-09
"v_SD3" 1.200000000000000e+00
"t_SD4" 6.020000000000000e-09
"v_SD4" 1.200000000000000e+00
"t_SD5" 9.020000000000001e-09
"v_SD5" 1.200000000000000e+00
"stimdata" 7.000000000000000e+00
"_paramsetIndex" 6.000000000000000e+00
"index" 6.000000000000000e+00
"ncxtd" 6.020000000000000e-09
"adrv_cap" 5.000000000000000e-12
"iptr" 5.000000000000000e-11
"load_cap" 5.600000000000000e-15
"t_D10" 0.000000000000000e+00
"v_D10" 0.000000000000000e+00
"t_D11" 3.000000000000000e-09
"v_D11" 0.000000000000000e+00
"t_D12" 3.010000000000000e-09
"v_D12" 0.000000000000000e+00
"t_D13" 6.010000000000000e-09
"v_D13" 0.000000000000000e+00
"t_D14" 6.019999795400000e-09
"v_D14" 0.000000000000000e+00
"t_D15" 6.039988555300000e-09
"v_D15" 2.400000000000000e-02
"t_D16" 6.059977315100000e-09
"v_D16" 4.800000000000000e-02
"t_D17" 6.079966075000000e-09
"v_D17" 7.199999999999999e-02
"t_D18" 6.099954834900000e-09
"v_D18" 9.600000000000000e-02
"t_D19" 6.118888714300000e-09
"v_D19" 1.200000000000000e-01
"t_D110" 6.121858998100000e-09
"v_D110" 1.800000000000000e-01
"t_D111" 6.124511226100000e-09
"v_D111" 2.400000000000000e-01
"t_D112" 6.127021069500000e-09
"v_D112" 3.000000000000000e-01
"t_D113" 6.129486018600000e-09
"v_D113" 3.600000000000000e-01
"t_D114" 6.131904149600000e-09
"v_D114" 4.200000000000000e-01
"t_D115" 6.134348480000000e-09
"v_D115" 4.800000000000000e-01
"t_D116" 6.136804054700000e-09
"v_D116" 5.400000000000000e-01
"t_D117" 6.139347723200000e-09
"v_D117" 6.000000000000000e-01
"t_D118" 6.141913187800000e-09
"v_D118" 6.600000000000000e-01
"t_D119" 6.144691349900000e-09
"v_D119" 7.200000000000000e-01
"t_D120" 6.147499613800000e-09
