HEADER
"PSFversion" "1.00"
"simulator" "spectre"
"version" "10.1.1.164.isr11"
"date" "3:01:57 PM, Fri Oct 17, 2014"
"design" "* Spectre Timing Acquisition"
"analysis type" "tran"
"analysis name" "transient1-029_transient1"
"analysis description" "Transient Analysis `transient1-029_transient1': time = (0 s -> 39 ns)"
"xVecSorted" "ascending"
"tolerance.relative" 0.00100000
"start" 0.00000
"outputstart" 0.00000
"stop" 3.90000e-08
"step" 3.90000e-11
"maxstep" 7.80000e-10
"ic" "all"
"useprevic" "no"
"skipdc" "no"
"reltol" 0.00100000
"abstol(V)" 1.00000e-06
"abstol(I)" 1.00000e-12
"temp" 25.0000
"tnom" 27.0000
"tempeffects" "all"
"errpreset" "moderate"
"method" "traponly"
"lteratio" 3.50000
"relref" "sigglobal"
"cmin" 0.00000
"gmin" 1.00000e-12
TYPE
"sweep" FLOAT DOUBLE PROP(
"key" "sweep"
)
"Tau" FLOAT DOUBLE PROP(
"units" "N*m"
"key" "node"
"tolerance" 1.00000e-06
)
"Alpha" FLOAT DOUBLE PROP(
"units" "rads/s^2"
"key" "node"
"tolerance" 1.00000e-06
)
"Omega" FLOAT DOUBLE PROP(
"units" "rads/s"
"key" "node"
"tolerance" 1.00000e-06
)
"Theta" FLOAT DOUBLE PROP(
"units" "rads"
"key" "node"
"tolerance" 1.00000e-06
)
"F" FLOAT DOUBLE PROP(
"units" "N"
"key" "node"
"tolerance" 1.00000e-06
)
"Imp" FLOAT DOUBLE PROP(
"units" "m/s^3"
"key" "node"
"tolerance" 1.00000e-06
)
"Acc" FLOAT DOUBLE PROP(
"units" "m/s^2"
"key" "node"
"tolerance" 1.00000e-06
)
"Vel" FLOAT DOUBLE PROP(
"units" "m/s"
"key" "node"
"tolerance" 1.00000e-06
)
"Pos" FLOAT DOUBLE PROP(
"units" "m"
"key" "node"
"tolerance" 1.00000e-06
)
"Phi" FLOAT DOUBLE PROP(
"units" "Wb"
"key" "node"
"tolerance" 1.00000e-09
)
"Q" FLOAT DOUBLE PROP(
"units" "coul"
"key" "node"
"tolerance" 1.00000e-14
)
"V" FLOAT DOUBLE PROP(
"units" "V"
"key" "node"
"tolerance" 1.00000e-06
)
"I" FLOAT DOUBLE PROP(
"units" "A"
"key" "branch"
"tolerance" 1.00000e-12
)
"MMF" FLOAT DOUBLE PROP(
"units" "A*turn"
"key" "node"
"tolerance" 1.00000e-12
)
"Wb" FLOAT DOUBLE PROP(
"units" "Wb"
"key" "node"
"tolerance" 1.00000e-09
)
"Temp" FLOAT DOUBLE PROP(
"units" "C"
"key" "node"
"tolerance" 0.000100000
)
"Pwr" FLOAT DOUBLE PROP(
"units" "W"
"key" "node"
"tolerance" 1.00000e-09
)
"U" FLOAT DOUBLE PROP(
"units" ""
"key" "node"
"tolerance" 1.00000e-06
)
"V/Sec" FLOAT DOUBLE PROP(
"units" "V/s"
"key" "node"
"tolerance" 0.000100000
)
"I/Sec" FLOAT DOUBLE PROP(
"units" "A/s"
"key" "node"
"tolerance" 1.00000e-06
)
"1/Sec" FLOAT DOUBLE PROP(
"units" "1/s"
"key" "node"
"tolerance" 0.000100000
)
"HOD" FLOAT DOUBLE PROP(
"units" ""
"key" "node"
"tolerance" 0.0100000
)
"A" FLOAT DOUBLE PROP(
"key" "inst"
)
"W" FLOAT DOUBLE PROP(
"key" "inst"
)
SWEEP
"time" "sweep" PROP(
"sweep_direction" 0
"units" "s"
"plot" 0
"grid" 1
)
TRACE
"Vn_D1:v" "V" PROP(
"units" "V"
)
"Vn_D1:i" "A" PROP(
"units" "A"
)
"Vn_D1:pwr" "W" PROP(
"units" "W"
)
"Vn_GND:v" "V" PROP(
"units" "V"
)
"Vn_GND:i" "A" PROP(
"units" "A"
)
"Vn_GND:pwr" "W" PROP(
"units" "W"
)
"Vn_SD:v" "V" PROP(
"units" "V"
)
"Vn_SD:i" "A" PROP(
"units" "A"
)
"Vn_SD:pwr" "W" PROP(
"units" "W"
)
"Vn_VDD:v" "V" PROP(
"units" "V"
)
"Vn_VDD:i" "A" PROP(
"units" "A"
)
"Vn_VDD:pwr" "W" PROP(
"units" "W"
)
"Vn_Z:v" "V" PROP(
"units" "V"
)
"Vn_Z:i" "A" PROP(
"units" "A"
)
"Vn_Z:pwr" "W" PROP(
"units" "W"
)
"n_Z" "V"
"n_D1" "V"
"n_SD" "V"
"Vn_D1:n" "I"
"Vn_D1:p" "I"
"Vn_GND:n" "I"
"Vn_GND:p" "I"
"Vn_SD:n" "I"
"Vn_SD:p" "I"
"Vn_VDD:n" "I"
"Vn_VDD:p" "I"
"Vn_Z:n" "I"
"Vn_Z:p" "I"
VALUE
"time" 0.000000000000000e+00
"Vn_D1:v" 0.000000000000000e+00
"Vn_D1:i" 7.517119452868265e-14
"Vn_D1:pwr" 0.000000000000000e+00
"Vn_GND:v" 0.000000000000000e+00
"Vn_GND:i" 2.548493107915353e-10
"Vn_GND:pwr" 0.000000000000000e+00
"Vn_SD:v" 0.000000000000000e+00
"Vn_SD:i" -5.105704018311278e-13
"Vn_SD:pwr" -0.000000000000000e+00
"Vn_VDD:v" 1.200000000000000e+00
"Vn_VDD:i" -2.544688430804968e-10
"Vn_VDD:pwr" -3.053626116965961e-10
"Vn_Z:v" 0.000000000000000e+00
"Vn_Z:i" 0.000000000000000e+00
"Vn_Z:pwr" 0.000000000000000e+00
"n_Z" 1.199999494927445e+00
"n_D1" 0.000000000000000e+00
"n_SD" 1.200000000000000e+00
"Vn_D1:n" -7.517119452868265e-14
"Vn_D1:p" 7.517119452868265e-14
"Vn_GND:n" -2.548493107915353e-10
"Vn_GND:p" 2.548493107915353e-10
"Vn_SD:n" 5.105704018311278e-13
"Vn_SD:p" -5.105704018311278e-13
"Vn_VDD:n" 2.544688430804968e-10
"Vn_VDD:p" -2.544688430804968e-10
"Vn_Z:n" 0.000000000000000e+00
"Vn_Z:p" 0.000000000000000e+00
"time" 3.900000000000000e-11
"Vn_D1:v" 0.000000000000000e+00
"Vn_D1:i" 7.486572190230821e-14
"Vn_D1:pwr" 0.000000000000000e+00
"Vn_GND:v" 0.000000000000000e+00
"Vn_GND:i" 2.548643621448603e-10
"Vn_GND:pwr" 0.000000000000000e+00
"Vn_SD:v" 0.000000000000000e+00
"Vn_SD:i" -5.109539655383424e-13
"Vn_SD:pwr" -0.000000000000000e+00
"Vn_VDD:v" 1.200000000000000e+00
"Vn_VDD:i" -2.544782074622703e-10
"Vn_VDD:pwr" -3.053738489547243e-10
"Vn_Z:v" 0.000000000000000e+00
"Vn_Z:i" -4.997934614807376e-15
"Vn_Z:pwr" -0.000000000000000e+00
"n_Z" 1.199999494890667e+00
"n_D1" 0.000000000000000e+00
"n_SD" 1.200000000000000e+00
"Vn_D1:n" -7.486572190230821e-14
"Vn_D1:p" 7.486572190230821e-14
"Vn_GND:n" -2.548643621448603e-10
"Vn_GND:p" 2.548643621448603e-10
"Vn_SD:n" 5.109539655383424e-13
"Vn_SD:p" -5.109539655383424e-13
"Vn_VDD:n" 2.544782074622703e-10
"Vn_VDD:p" -2.544782074622703e-10
"Vn_Z:n" 4.997934614807376e-15
"Vn_Z:p" -4.997934614807376e-15
"time" 1.170000000000000e-10
"Vn_D1:v" 0.000000000000000e+00
"Vn_D1:i" 7.504721162185714e-14
"Vn_D1:pwr" 0.000000000000000e+00
"Vn_GND:v" 0.000000000000000e+00
"Vn_GND:i" 2.548656889964481e-10
"Vn_GND:pwr" 0.000000000000000e+00
"Vn_SD:v" 0.000000000000000e+00
"Vn_SD:i" -5.107121903829784e-13
"Vn_SD:pwr" -0.000000000000000e+00
"Vn_VDD:v" 1.200000000000000e+00
"Vn_VDD:i" -2.544832957145181e-10
"Vn_VDD:pwr" -3.053799548574217e-10
"Vn_Z:v" 0.000000000000000e+00
"Vn_Z:i" -1.659789554015753e-15
"Vn_Z:pwr" -0.000000000000000e+00
"n_Z" 1.199999494866240e+00
"n_D1" 0.000000000000000e+00
"n_SD" 1.200000000000000e+00
"Vn_D1:n" -7.504721162185714e-14
"Vn_D1:p" 7.504721162185714e-14
"Vn_GND:n" -2.548656889964481e-10
"Vn_GND:p" 2.548656889964481e-10
"Vn_SD:n" 5.107121903829784e-13
"Vn_SD:p" -5.107121903829784e-13
"Vn_VDD:n" 2.544832957145181e-10
"Vn_VDD:p" -2.544832957145181e-10
"Vn_Z:n" 1.659789554015753e-15
"Vn_Z:p" -1.659789554015753e-15
"time" 2.730000000000000e-10
"Vn_D1:v" 0.000000000000000e+00
"Vn_D1:i" 7.521043145468434e-14
"Vn_D1:pwr" 0.000000000000000e+00
"Vn_GND:v" 0.000000000000000e+00
"Vn_GND:i" 2.548665193907535e-10
"Vn_GND:pwr" 0.000000000000000e+00
"Vn_SD:v" 0.000000000000000e+00
"Vn_SD:i" -5.105252229721758e-13
"Vn_SD:pwr" -0.000000000000000e+00
"Vn_VDD:v" 1.200000000000000e+00
"Vn_VDD:i" -2.544866860934329e-10
"Vn_VDD:pwr" -3.053840233121194e-10
"Vn_Z:v" 0.000000000000000e+00
"Vn_Z:i" 5.466494407454724e-16
"Vn_Z:pwr" 0.000000000000000e+00
"n_Z" 1.199999494849858e+00
"n_D1" 0.000000000000000e+00
"n_SD" 1.200000000000000e+00
"Vn_D1:n" -7.521043145468434e-14
"Vn_D1:p" 7.521043145468434e-14
"Vn_GND:n" -2.548665193907535e-10
"Vn_GND:p" 2.548665193907535e-10
"Vn_SD:n" 5.105252229721758e-13
"Vn_SD:p" -5.105252229721758e-13
"Vn_VDD:n" 2.544866860934329e-10
"Vn_VDD:p" -2.544866860934329e-10
"Vn_Z:n" -5.466494407454724e-16
"Vn_Z:p" 5.466494407454724e-16
"time" 5.850000000000002e-10
"Vn_D1:v" 0.000000000000000e+00
"Vn_D1:i" 7.514883574743441e-14
"Vn_D1:pwr" 0.000000000000000e+00
"Vn_GND:v" 0.000000000000000e+00
"Vn_GND:i" 2.548661684039442e-10
"Vn_GND:pwr" 0.000000000000000e+00
"Vn_SD:v" 0.000000000000000e+00
"Vn_SD:i" -5.105963433553635e-13
"Vn_SD:pwr" -0.000000000000000e+00
"Vn_VDD:v" 1.200000000000000e+00
"Vn_VDD:i" -2.544853280658069e-10
"Vn_VDD:pwr" -3.053823936789683e-10
"Vn_Z:v" 0.000000000000000e+00
"Vn_Z:i" -3.240874926664964e-16
"Vn_Z:pwr" -0.000000000000000e+00
"n_Z" 1.199999494856409e+00
"n_D1" 0.000000000000000e+00
"n_SD" 1.200000000000000e+00
"Vn_D1:n" -7.514883574743441e-14
"Vn_D1:p" 7.514883574743441e-14
"Vn_GND:n" -2.548661684039442e-10
"Vn_GND:p" 2.548661684039442e-10
"Vn_SD:n" 5.105963433553635e-13
"Vn_SD:p" -5.105963433553635e-13
"Vn_VDD:n" 2.544853280658069e-10
"Vn_VDD:p" -2.544853280658069e-10
"Vn_Z:n" 3.240874926664964e-16
"Vn_Z:p" -3.240874926664964e-16
"time" 1.209000000000000e-09
"Vn_D1:v" 0.000000000000000e+00
"Vn_D1:i" 7.518817812418734e-14
"Vn_D1:pwr" 0.000000000000000e+00
"Vn_GND:v" 0.000000000000000e+00
"Vn_GND:i" 2.548663527252635e-10
"Vn_GND:pwr" 0.000000000000000e+00
"Vn_SD:v" 0.000000000000000e+00
"Vn_SD:i" -5.105505802603182e-13
"Vn_SD:pwr" -0.000000000000000e+00
"Vn_VDD:v" 1.200000000000000e+00
"Vn_VDD:i" -2.544861707958587e-10
"Vn_VDD:pwr" -3.053834049550304e-10
"Vn_Z:v" 0.000000000000000e+00
"Vn_Z:i" 2.541636182678416e-16
"Vn_Z:pwr" 0.000000000000000e+00
"n_Z" 1.199999494852293e+00
"n_D1" 0.000000000000000e+00
"n_SD" 1.200000000000000e+00
"Vn_D1:n" -7.518817812418734e-14
"Vn_D1:p" 7.518817812418734e-14
"Vn_GND:n" -2.548663527252635e-10
"Vn_GND:p" 2.548663527252635e-10
"Vn_SD:n" 5.105505802603182e-13
"Vn_SD:p" -5.105505802603182e-13
"Vn_VDD:n" 2.544861707958587e-10
"Vn_VDD:p" -2.544861707958587e-10
"Vn_Z:n" -2.541636182678416e-16
"Vn_Z:p" 2.541636182678416e-16
"time" 1.989000000000000e-09
"Vn_D1:v" 0.000000000000000e+00
"Vn_D1:i" 7.515785816601874e-14
"Vn_D1:pwr" 0.000000000000000e+00
"Vn_GND:v" 0.000000000000000e+00
"Vn_GND:i" 2.548661314824314e-10
"Vn_GND:pwr" 0.000000000000000e+00
"Vn_SD:v" 0.000000000000000e+00
"Vn_SD:i" -5.105860552642194e-13
"Vn_SD:pwr" -0.000000000000000e+00
"Vn_VDD:v" 1.200000000000000e+00
"Vn_VDD:i" -2.544854378180291e-10
"Vn_VDD:pwr" -3.053825253816349e-10
"Vn_Z:v" 0.000000000000000e+00
"Vn_Z:i" -2.056284398694818e-16
"Vn_Z:pwr" -0.000000000000000e+00
"n_Z" 1.199999494855865e+00
"n_D1" 0.000000000000000e+00
"n_SD" 1.200000000000000e+00
"Vn_D1:n" -7.515785816601874e-14
"Vn_D1:p" 7.515785816601874e-14
"Vn_GND:n" -2.548661314824314e-10
"Vn_GND:p" 2.548661314824314e-10
"Vn_SD:n" 5.105860552642194e-13
"Vn_SD:p" -5.105860552642194e-13
"Vn_VDD:n" 2.544854378180291e-10
"Vn_VDD:p" -2.544854378180291e-10
"Vn_Z:n" 2.056284398694818e-16
"Vn_Z:p" -2.056284398694818e-16
"time" 2.769000000000001e-09
"Vn_D1:v" 0.000000000000000e+00
"Vn_D1:i" 7.518191475872518e-14
"Vn_D1:pwr" 0.000000000000000e+00
"Vn_GND:v" 0.000000000000000e+00
"Vn_GND:i" 2.548662296776418e-10
"Vn_GND:pwr" 0.000000000000000e+00
"Vn_SD:v" 0.000000000000000e+00
"Vn_SD:i" -5.105577226538630e-13
"Vn_SD:pwr" -0.000000000000000e+00
"Vn_VDD:v" 1.200000000000000e+00
"Vn_VDD:i" -2.544859533362955e-10
"Vn_VDD:pwr" -3.053831440035546e-10
"Vn_Z:v" 0.000000000000000e+00
"Vn_Z:i" 1.707809735917419e-16
"Vn_Z:pwr" 0.000000000000000e+00
"n_Z" 1.199999494853300e+00
"n_D1" 0.000000000000000e+00
"n_SD" 1.200000000000000e+00
"Vn_D1:n" -7.518191475872518e-14
"Vn_D1:p" 7.518191475872518e-14
"Vn_GND:n" -2.548662296776418e-10
"Vn_GND:p" 2.548662296776418e-10
"Vn_SD:n" 5.105577226538630e-13
"Vn_SD:p" -5.105577226538630e-13
"Vn_VDD:n" 2.544859533362955e-10
"Vn_VDD:p" -2.544859533362955e-10
"Vn_Z:n" -1.707809735917419e-16
"Vn_Z:p" 1.707809735917419e-16
"time" 3.000000000000000e-09
"Vn_D1:v" 0.000000000000000e+00
"Vn_D1:i" 7.516701924704088e-14
"Vn_D1:pwr" 0.000000000000000e+00
"Vn_GND:v" 0.000000000000000e+00
"Vn_GND:i" 2.548661189852069e-10
"Vn_GND:pwr" 0.000000000000000e+00
"Vn_SD:v" 0.000000000000000e+00
"Vn_SD:i" -5.105755752710427e-13
"Vn_SD:pwr" -0.000000000000000e+00
"Vn_VDD:v" 1.200000000000000e+00
"Vn_VDD:i" -2.544855592325915e-10
"Vn_VDD:pwr" -3.053826710791098e-10
"Vn_Z:v" 0.000000000000000e+00
"Vn_Z:i" -8.268563127648597e-17
"Vn_Z:pwr" -0.000000000000000e+00
"n_Z" 1.199999494855220e+00
"n_D1" 0.000000000000000e+00
"n_SD" 1.200000000000000e+00
"Vn_D1:n" -7.516701924704088e-14
"Vn_D1:p" 7.516701924704088e-14
"Vn_GND:n" -2.548661189852069e-10
"Vn_GND:p" 2.548661189852069e-10
"Vn_SD:n" 5.105755752710427e-13
"Vn_SD:p" -5.105755752710427e-13
"Vn_VDD:n" 2.544855592325915e-10
"Vn_VDD:p" -2.544855592325915e-10
"Vn_Z:n" 8.268563127648597e-17
"Vn_Z:p" -8.268563127648597e-17
"time" 3.010000000000000e-09
"Vn_D1:v" 0.000000000000000e+00
"Vn_D1:i" 7.516701054606637e-14
"Vn_D1:pwr" 0.000000000000000e+00
"Vn_GND:v" 0.000000000000000e+00
"Vn_GND:i" 2.548661257915057e-10
"Vn_GND:pwr" 0.000000000000000e+00
"Vn_SD:v" 0.000000000000000e+00
"Vn_SD:i" -5.105755737629773e-13
"Vn_SD:pwr" -0.000000000000000e+00
"Vn_VDD:v" 1.200000000000000e+00
"Vn_VDD:i" -2.544855834870098e-10
"Vn_VDD:pwr" -3.053827001844117e-10
"Vn_Z:v" 0.000000000000000e+00
"Vn_Z:i" -6.521342961005594e-17
"Vn_Z:pwr" -0.000000000000000e+00
"n_Z" 1.199999494855097e+00
"n_D1" 0.000000000000000e+00
"n_SD" 1.200000000000000e+00
"Vn_D1:n" -7.516701054606637e-14
"Vn_D1:p" 7.516701054606637e-14
"Vn_GND:n" -2.548661257915057e-10
"Vn_GND:p" 2.548661257915057e-10
"Vn_SD:n" 5.105755737629773e-13
"Vn_SD:p" -5.105755737629773e-13
"Vn_VDD:n" 2.544855834870098e-10
"Vn_VDD:p" -2.544855834870098e-10
"Vn_Z:n" 6.521342961005594e-17
"Vn_Z:p" -6.521342961005594e-17
"time" 3.030000000000000e-09
"Vn_D1:v" 0.000000000000000e+00
"Vn_D1:i" 7.516803694336291e-14
"Vn_D1:pwr" 0.000000000000000e+00
"Vn_GND:v" 0.000000000000000e+00
"Vn_GND:i" 2.548661330908253e-10
"Vn_GND:pwr" 0.000000000000000e+00
"Vn_SD:v" 0.000000000000000e+00
"Vn_SD:i" -5.105739889286803e-13
"Vn_SD:pwr" -0.000000000000000e+00
"Vn_VDD:v" 1.200000000000000e+00
"Vn_VDD:i" -2.544856162380130e-10
"Vn_VDD:pwr" -3.053827394856156e-10
"Vn_Z:v" 0.000000000000000e+00
"Vn_Z:i" -4.242380121720779e-17
"Vn_Z:pwr" -0.000000000000000e+00
"n_Z" 1.199999494854937e+00
"n_D1" 0.000000000000000e+00
"n_SD" 1.200000000000000e+00
"Vn_D1:n" -7.516803694336291e-14
"Vn_D1:p" 7.516803694336291e-14
"Vn_GND:n" -2.548661330908253e-10
"Vn_GND:p" 2.548661330908253e-10
"Vn_SD:n" 5.105739889286803e-13
"Vn_SD:p" -5.105739889286803e-13
"Vn_VDD:n" 2.544856162380130e-10
"Vn_VDD:p" -2.544856162380130e-10
"Vn_Z:n" 4.242380121720779e-17
"Vn_Z:p" -4.242380121720779e-17
"time" 3.070000000000001e-09
"Vn_D1:v" 0.000000000000000e+00
"Vn_D1:i" 7.516998170472073e-14
"Vn_D1:pwr" 0.000000000000000e+00
"Vn_GND:v" 0.000000000000000e+00
"Vn_GND:i" 2.548661413096881e-10
"Vn_GND:pwr" 0.000000000000000e+00
"Vn_SD:v" 0.000000000000000e+00
"Vn_SD:i" -5.105717938205684e-13
"Vn_SD:pwr" -0.000000000000000e+00
"Vn_VDD:v" 1.200000000000000e+00
"Vn_VDD:i" -2.544856650385344e-10
"Vn_VDD:pwr" -3.053827980462413e-10
"Vn_Z:v" 0.000000000000000e+00
"Vn_Z:i" -1.445228185185307e-17
"Vn_Z:pwr" -0.000000000000000e+00
"n_Z" 1.199999494854722e+00
"n_D1" 0.000000000000000e+00
"n_SD" 1.200000000000000e+00
"Vn_D1:n" -7.516998170472073e-14
"Vn_D1:p" 7.516998170472073e-14
"Vn_GND:n" -2.548661413096881e-10
"Vn_GND:p" 2.548661413096881e-10
"Vn_SD:n" 5.105717938205684e-13
"Vn_SD:p" -5.105717938205684e-13
"Vn_VDD:n" 2.544856650385344e-10
"Vn_VDD:p" -2.544856650385344e-10
"Vn_Z:n" 1.445228185185307e-17
"Vn_Z:p" -1.445228185185307e-17
"time" 3.150000000000003e-09
"Vn_D1:v" 0.000000000000000e+00
"Vn_D1:i" 7.517153251330827e-14
"Vn_D1:pwr" 0.000000000000000e+00
"Vn_GND:v" 0.000000000000000e+00
"Vn_GND:i" 2.548661433061802e-10
"Vn_GND:pwr" 0.000000000000000e+00
"Vn_SD:v" 0.000000000000000e+00
"Vn_SD:i" -5.105699212953676e-13
"Vn_SD:pwr" -0.000000000000000e+00
"Vn_VDD:v" 1.200000000000000e+00
"Vn_VDD:i" -2.544856744333108e-10
"Vn_VDD:pwr" -3.053828093199730e-10
"Vn_Z:v" 0.000000000000000e+00
"Vn_Z:i" 3.186449515288097e-18
"Vn_Z:pwr" 0.000000000000000e+00
"n_Z" 1.199999494854638e+00
"n_D1" 0.000000000000000e+00
"n_SD" 1.200000000000000e+00
"Vn_D1:n" -7.517153251330827e-14
"Vn_D1:p" 7.517153251330827e-14
"Vn_GND:n" -2.548661433061802e-10
"Vn_GND:p" 2.548661433061802e-10
"Vn_SD:n" 5.105699212953676e-13
"Vn_SD:p" -5.105699212953676e-13
"Vn_VDD:n" 2.544856744333108e-10
"Vn_VDD:p" -2.544856744333108e-10
"Vn_Z:n" -3.186449515288097e-18
"Vn_Z:p" 3.186449515288097e-18
"time" 3.310000000000005e-09
"Vn_D1:v" 0.000000000000000e+00
"Vn_D1:i" 7.517122697603069e-14
"Vn_D1:pwr" 0.000000000000000e+00
"Vn_GND:v" 0.000000000000000e+00
"Vn_GND:i" 2.548661336078024e-10
"Vn_GND:pwr" 0.000000000000000e+00
"Vn_SD:v" 0.000000000000000e+00
"Vn_SD:i" -5.105704700260047e-13
"Vn_SD:pwr" -0.000000000000000e+00
"Vn_VDD:v" 1.200000000000000e+00
"Vn_VDD:i" -2.544856670115385e-10
"Vn_VDD:pwr" -3.053828004138462e-10
"Vn_Z:v" 0.000000000000000e+00
"Vn_Z:i" 4.566999093473974e-19
"Vn_Z:pwr" 0.000000000000000e+00
"n_Z" 1.199999494854693e+00
"n_D1" 0.000000000000000e+00
"n_SD" 1.200000000000000e+00
"Vn_D1:n" -7.517122697603069e-14
"Vn_D1:p" 7.517122697603069e-14
"Vn_GND:n" -2.548661336078024e-10
"Vn_GND:p" 2.548661336078024e-10
"Vn_SD:n" 5.105704700260047e-13
"Vn_SD:p" -5.105704700260047e-13
"Vn_VDD:n" 2.544856670115385e-10
"Vn_VDD:p" -2.544856670115385e-10
"Vn_Z:n" -4.566999093473974e-19
"Vn_Z:p" 4.566999093473974e-19
"time" 3.630000000000011e-09
"Vn_D1:v" 0.000000000000000e+00
"Vn_D1:i" 7.517129525328842e-14
"Vn_D1:pwr" 0.000000000000000e+00
"Vn_GND:v" 0.000000000000000e+00
"Vn_GND:i" 2.548661140996681e-10
"Vn_GND:pwr" 0.000000000000000e+00
"Vn_SD:v" 0.000000000000000e+00
"Vn_SD:i" -5.105701668735826e-13
"Vn_SD:pwr" -0.000000000000000e+00
"Vn_VDD:v" 1.200000000000000e+00
"Vn_VDD:i" -2.544856528396924e-10
"Vn_VDD:pwr" -3.053827834076309e-10
"Vn_Z:v" 0.000000000000000e+00
"Vn_Z:i" 1.482715305728621e-18
"Vn_Z:pwr" 0.000000000000000e+00
"n_Z" 1.199999494854751e+00
"n_D1" 0.000000000000000e+00
"n_SD" 1.200000000000000e+00
"Vn_D1:n" -7.517129525328842e-14
"Vn_D1:p" 7.517129525328842e-14
"Vn_GND:n" -2.548661140996681e-10
"Vn_GND:p" 2.548661140996681e-10
"Vn_SD:n" 5.105701668735826e-13
"Vn_SD:p" -5.105701668735826e-13
"Vn_VDD:n" 2.544856528396924e-10
"Vn_VDD:p" -2.544856528396924e-10
"Vn_Z:n" -1.482715305728621e-18
"Vn_Z:p" 1.482715305728621e-18
"time" 4.270000000000022e-09
"Vn_D1:v" 0.000000000000000e+00
"Vn_D1:i" 7.517121786221071e-14
"Vn_D1:pwr" 0.000000000000000e+00
"Vn_GND:v" 0.000000000000000e+00
"Vn_GND:i" 2.548660774697921e-10
"Vn_GND:pwr" 0.000000000000000e+00
"Vn_SD:v" 0.000000000000000e+00
"Vn_SD:i" -5.105704909760130e-13
"Vn_SD:pwr" -0.000000000000000e+00
"Vn_VDD:v" 1.200000000000000e+00
"Vn_VDD:i" -2.544856122012113e-10
"Vn_VDD:pwr" -3.053827346414536e-10
"Vn_Z:v" 0.000000000000000e+00
"Vn_Z:i" 1.330751456100723e-18
"Vn_Z:pwr" 0.000000000000000e+00
"n_Z" 1.199999494854921e+00
"n_D1" 0.000000000000000e+00
"n_SD" 1.200000000000000e+00
"Vn_D1:n" -7.517121786221071e-14
"Vn_D1:p" 7.517121786221071e-14
"Vn_GND:n" -2.548660774697921e-10
"Vn_GND:p" 2.548660774697921e-10
"Vn_SD:n" 5.105704909760130e-13
"Vn_SD:p" -5.105704909760130e-13
"Vn_VDD:n" 2.544856122012113e-10
"Vn_VDD:p" -2.544856122012113e-10
"Vn_Z:n" -1.330751456100723e-18
"Vn_Z:p" 1.330751456100723e-18
"time" 5.050000000000022e-09
"Vn_D1:v" 0.000000000000000e+00
"Vn_D1:i" 7.517137444302897e-14
"Vn_D1:pwr" 0.000000000000000e+00
"Vn_GND:v" 0.000000000000000e+00
"Vn_GND:i" 2.548660321234833e-10
"Vn_GND:pwr" 0.000000000000000e+00
"Vn_SD:v" 0.000000000000000e+00
"Vn_SD:i" -5.105700649579649e-13
"Vn_SD:pwr" -0.000000000000000e+00
"Vn_VDD:v" 1.200000000000000e+00
"Vn_VDD:i" -2.544855621817594e-10
"Vn_VDD:pwr" -3.053826746181112e-10
"Vn_Z:v" 0.000000000000000e+00
"Vn_Z:i" 1.492128409173352e-18
"Vn_Z:pwr" 0.000000000000000e+00
"n_Z" 1.199999494855129e+00
"n_D1" 0.000000000000000e+00
"n_SD" 1.200000000000000e+00
"Vn_D1:n" -7.517137444302897e-14
"Vn_D1:p" 7.517137444302897e-14
"Vn_GND:n" -2.548660321234833e-10
"Vn_GND:p" 2.548660321234833e-10
"Vn_SD:n" 5.105700649579649e-13
"Vn_SD:p" -5.105700649579649e-13
"Vn_VDD:n" 2.544855621817594e-10
"Vn_VDD:p" -2.544855621817594e-10
"Vn_Z:n" -1.492128409173352e-18
"Vn_Z:p" 1.492128409173352e-18
"time" 5.830000000000022e-09
"Vn_D1:v" 0.000000000000000e+00
"Vn_D1:i" 7.517120716591957e-14
"Vn_D1:pwr" 0.000000000000000e+00
"Vn_GND:v" 0.000000000000000e+00
"Vn_GND:i" 2.548659868873638e-10
"Vn_GND:pwr" 0.000000000000000e+00
"Vn_SD:v" 0.000000000000000e+00
"Vn_SD:i" -5.105705270320946e-13
"Vn_SD:pwr" -0.000000000000000e+00
"Vn_VDD:v" 1.200000000000000e+00
"Vn_VDD:i" -2.544855259170300e-10
"Vn_VDD:pwr" -3.053826311004360e-10
"Vn_Z:v" 0.000000000000000e+00
"Vn_Z:i" 9.641767460571101e-19
"Vn_Z:pwr" 0.000000000000000e+00
"n_Z" 1.199999494855309e+00
"n_D1" 0.000000000000000e+00
"n_SD" 1.200000000000000e+00
"Vn_D1:n" -7.517120716591957e-14
